;$FILEVERSION=1.1
;$STARTTIME=45779.5278903241
;
;   Start time: 5/2/2025 12:40:09.724.0
;   Generated by PCAN-View v5.3.2.952
;
;   Message Number
;   |         Time Offset (ms)
;   |         |        Type
;   |         |        |        ID (hex)
;   |         |        |        |     Data Length
;   |         |        |        |     |   Data Bytes (hex) ...
;   |         |        |        |     |   |
;---+--   ----+----  --+--  ----+---  +  -+ -- -- -- -- -- -- --
     1)        30.4  Rx     00002901  8  FC 5D 00 00 FF FF 23 00 
     2)        30.9  Rx     00002902  8  FF DB 00 00 FF FC 21 00 
     3)        31.4  Rx         0003  8  76 F2 6F 76 F2 6F 00 00 
     4)        31.5  Rx         0004  8  00 00 00 00 00 00 00 00 
     5)        31.6  Rx         0005  8  80 18 01 80 10 00 01 71 
     6)        31.8  Rx     00000801  8  00 00 00 7F FF 80 08 00 
     7)        31.9  Rx     00000802  8  00 00 00 7F FF 80 08 00 
     8)        32.4  Rx     00002901  8  FC 5D 00 00 FF FC 23 00 
     9)        32.9  Rx     00002902  8  FF DB 00 00 FF FC 21 00 
    10)        34.4  Rx     00002901  8  FC 5D 00 00 FF FF 23 00 
    11)        34.9  Rx     00002902  8  FF DB 00 00 FF FA 21 00 
    12)        35.3  Rx         0003  8  76 F2 6F 76 F2 6F 00 00 
    13)        35.5  Rx         0004  8  00 00 00 00 00 00 00 00 
    14)        35.6  Rx         0005  8  80 18 01 80 10 00 01 71 
    15)        35.7  Rx     00000801  8  00 00 00 7F FF 80 08 00 
    16)        35.9  Rx     00000802  8  00 00 00 7F FF 80 08 00 
    17)        36.4  Rx     00002901  8  FC 5D 00 00 FF FC 23 00 
    18)        36.9  Rx     00002902  8  FF DB 00 00 FF FC 21 00 
    19)        38.4  Rx     00002901  8  FC 5D 00 00 FF FF 23 00 
    20)        38.8  Rx     00002902  8  FF DB 00 00 FF FA 21 00 
    21)        39.4  Rx         0003  8  76 F2 6F 76 F2 6F 00 00 
    22)        39.5  Rx         0004  8  00 00 00 00 00 00 00 00 
    23)        39.6  Rx         0005  8  80 18 01 80 10 00 01 70 
    24)        39.7  Rx     00000801  8  00 00 00 7F FF 80 08 00 
    25)        39.9  Rx     00000802  8  00 00 00 7F FF 80 08 00 
    26)        40.4  Rx     00002901  8  FC 5D 00 00 FF FA 23 00 
    27)        40.8  Rx     00002902  8  FF DB 00 00 FF FA 21 00 
    28)        42.4  Rx     00002901  8  FC 5D 00 00 FF FD 23 00 
    29)        42.9  Rx     00002902  8  FF DB 00 00 FF FC 21 00 
    30)        43.4  Rx         0003  8  76 F2 6F 76 F2 6F 00 00 
    31)        43.5  Rx         0004  8  00 00 00 00 00 00 00 00 
    32)        43.6  Rx         0005  8  80 18 01 80 10 00 01 70 
    33)        43.7  Rx     00000801  8  00 00 00 7F FF 80 08 00 
    34)        43.9  Rx     00000802  8  00 00 00 7F FF 80 08 00 
    35)        44.4  Rx     00002901  8  FC 5D 00 00 FF FC 23 00 
    36)        44.9  Rx     00002902  8  FF DB 00 00 FF FC 21 00 
    37)        46.4  Rx     00002901  8  FC 5D 00 00 FF FE 23 00 
    38)        46.9  Rx     00002902  8  FF DB 00 00 FF FB 21 00 
    39)        47.4  Rx         0003  8  76 F2 6F 76 F2 6F 00 00 
    40)        47.5  Rx         0004  8  00 00 00 00 00 00 00 00 
    41)        47.6  Rx         0005  8  80 18 01 80 10 00 01 70 
    42)        47.8  Rx     00000801  8  00 00 00 7F FF 80 08 00 
    43)        47.9  Rx     00000802  8  00 00 00 7F FF 80 08 00 
    44)        48.4  Rx     00002901  8  FC 5D 00 00 FF FC 23 00 
    45)        48.9  Rx     00002902  8  FF DB 00 00 FF FA 21 00 
    46)        50.4  Rx     00002901  8  FC 5D 00 00 FF FD 23 00 
    47)        50.8  Rx     00002902  8  FF DB 00 00 FF FC 21 00 
    48)        51.3  Rx         0003  8  76 F2 6F 76 F2 6F 00 00 
    49)        51.5  Rx         0004  8  00 00 00 00 00 00 00 00 
    50)        51.6  Rx         0005  8  80 18 01 80 10 00 01 70 
    51)        51.7  Rx     00000801  8  00 00 00 7F FF 80 08 00 
    52)        51.9  Rx     00000802  8  00 00 00 7F FF 80 08 00 
    53)        52.4  Rx     00002901  8  FC 5D 00 00 FF FD 23 00 
    54)        52.9  Rx     00002902  8  FF DB 00 00 FF FC 21 00 
    55)        54.4  Rx     00002901  8  FC 5D 00 00 FF FE 23 00 
    56)        54.8  Rx     00002902  8  FF DB 00 00 FF FC 21 00 
    57)        55.4  Rx         0003  8  76 F2 6F 76 F2 6F 00 00 
    58)        55.5  Rx         0004  8  00 00 00 00 00 00 00 00 
    59)        55.6  Rx         0005  8  80 18 01 80 10 00 01 70 
    60)        55.7  Rx     00000801  8  00 00 00 7F FF 80 08 00 
    61)        55.9  Rx     00000802  8  00 00 00 7F FF 80 08 00 
    62)        56.4  Rx     00002901  8  FC 5D 00 00 FF FB 23 00 
    63)        56.8  Rx     00002902  8  FF DB 00 00 FF FA 21 00 
    64)        58.4  Rx     00002901  8  FC 5D 00 00 FF FF 23 00 
    65)        58.9  Rx     00002902  8  FF DB 00 00 FF FB 21 00 
    66)        59.4  Rx         0003  8  76 F2 6F 76 F2 6F 00 00 
    67)        59.5  Rx         0004  8  00 00 00 00 00 00 00 00 
    68)        59.6  Rx         0005  8  80 18 01 80 10 00 01 70 
    69)        59.7  Rx     00000801  8  00 00 00 7F FF 80 08 00 
    70)        59.9  Rx     00000802  8  00 00 00 7F FF 80 08 00 
    71)        60.4  Rx     00002901  8  FC 5D 00 00 FF FC 23 00 
    72)        60.9  Rx     00002902  8  FF DB 00 00 FF FE 21 00 
    73)        62.4  Rx     00002901  8  FC 5D 00 00 FF FE 23 00 
    74)        62.9  Rx     00002902  8  FF DB 00 00 FF FA 21 00 
    75)        63.3  Rx         0003  8  76 F2 6F 76 F2 6F 00 00 
    76)        63.5  Rx         0004  8  00 00 00 00 00 00 00 00 
    77)        63.6  Rx         0005  8  80 18 01 80 10 00 01 70 
    78)        63.8  Rx     00000801  8  00 00 00 7F FF 80 08 00 
    79)        63.9  Rx     00000802  8  00 00 00 7F FF 80 08 00 
    80)        64.4  Rx     00002901  8  FC 5D 00 00 FF FF 23 00 
    81)        64.9  Rx     00002902  8  FF DB 00 00 FF FB 21 00 
    82)        66.4  Rx     00002901  8  FC 5D 00 00 FF FE 23 00 
    83)        66.9  Rx     00002902  8  FF DB 00 00 FF FB 21 00 
    84)        67.3  Rx         0003  8  76 F2 6F 76 F2 6F 00 00 
    85)        67.5  Rx         0004  8  00 00 00 00 00 00 00 00 
    86)        67.6  Rx         0005  8  80 18 01 80 10 00 01 71 
    87)        67.8  Rx     00000801  8  00 00 00 7F FF 80 08 00 
    88)        67.9  Rx     00000802  8  00 00 00 7F FF 80 08 00 
    89)        68.4  Rx     00002901  8  FC 5D 00 00 FF F8 23 00 
    90)        68.9  Rx     00002902  8  FF DB 00 00 FF FC 21 00 
    91)        70.4  Rx     00002901  8  FC 5D 00 00 00 00 23 00 
    92)        70.9  Rx     00002902  8  FF DB 00 00 FF FA 21 00 
    93)        71.4  Rx         0003  8  76 F2 6F 76 F2 6F 00 00 
    94)        71.5  Rx         0004  8  00 00 00 00 00 00 00 00 
    95)        71.6  Rx         0005  8  80 18 01 80 10 00 01 71 
    96)        71.8  Rx     00000801  8  00 00 00 7F FF 80 08 00 
    97)        71.9  Rx     00000802  8  00 00 00 7F FF 80 08 00 
    98)        72.4  Rx     00002901  8  FC 5D 00 00 FF FB 23 00 
    99)        72.8  Rx     00002902  8  FF DB 00 00 FF FB 21 00 
   100)        74.4  Rx     00002901  8  FC 5D 00 00 FF FD 23 00 
   101)        74.8  Rx     00002902  8  FF DB 00 00 FF FA 21 00 
   102)        75.4  Rx         0003  8  76 F2 6F 76 F2 6F 00 00 
   103)        75.5  Rx         0004  8  00 00 00 00 00 00 00 00 
   104)        75.6  Rx         0005  8  80 18 01 80 10 00 01 71 
   105)        75.7  Rx     00000801  8  00 00 00 7F FF 80 08 00 
   106)        75.9  Rx     00000802  8  00 00 00 7F FF 80 08 00 
   107)        76.4  Rx     00002901  8  FC 5D 00 00 FF FA 23 00 
   108)        76.9  Rx     00002902  8  FF DB 00 00 FF FC 21 00 
   109)        78.4  Rx     00002901  8  FC 5D 00 00 FF FF 23 00 
   110)        78.9  Rx     00002902  8  FF DB 00 00 FF FB 21 00 
   111)        79.4  Rx         0003  8  76 F2 6F 76 F2 6F 00 00 
   112)        79.5  Rx         0004  8  00 00 00 00 00 00 00 00 
   113)        79.6  Rx         0005  8  80 18 01 80 10 00 01 70 
   114)        79.8  Rx     00000801  8  00 00 00 7F FF 80 08 00 
   115)        79.9  Rx     00000802  8  00 00 00 7F FF 80 08 00 
   116)        80.4  Rx     00002901  8  FC 5D 00 00 FF FA 23 00 
   117)        80.9  Rx     00002902  8  FF DB 00 00 FF FD 21 00 
   118)        82.4  Rx     00002901  8  FC 5D 00 00 FF FD 23 00 
   119)        82.9  Rx     00002902  8  FF DB 00 00 FF FB 21 00 
   120)        83.3  Rx         0003  8  76 F2 6F 76 F2 6F 00 00 
   121)        83.5  Rx         0004  8  00 00 00 00 00 00 00 00 
   122)        83.6  Rx         0005  8  80 18 01 80 10 00 01 70 
   123)        83.8  Rx     00000801  8  00 00 00 7F FF 80 08 00 
   124)        83.9  Rx     00000802  8  00 00 00 7F FF 80 08 00 
   125)        84.4  Rx     00002901  8  FC 5D 00 00 FF F7 23 00 
   126)        84.8  Rx     00002902  8  FF DB 00 00 FF FC 21 00 
   127)        86.4  Rx     00002901  8  FC 5D 00 00 00 00 23 00 
   128)        86.8  Rx     00002902  8  FF DB 00 00 FF FC 21 00 
   129)        87.4  Rx         0003  8  76 F2 6F 76 F2 6F 00 00 
   130)        87.5  Rx         0004  8  00 00 00 00 00 00 00 00 
   131)        87.6  Rx         0005  8  80 18 01 80 10 00 01 70 
   132)        87.7  Rx     00000801  8  00 00 00 7F FF 80 08 00 
   133)        87.9  Rx     00000802  8  00 00 00 7F FF 80 08 00 
   134)        88.4  Rx     00002901  8  FC 5D 00 00 FF FB 23 00 
   135)        88.8  Rx     00002902  8  FF DB 00 00 FF FC 21 00 
   136)        90.4  Rx     00002901  8  FC 5D 00 00 FF FE 23 00 
   137)        90.8  Rx     00002902  8  FF DB 00 00 FF FB 21 00 
   138)        91.4  Rx         0003  8  76 F2 6F 76 F2 6F 00 00 
   139)        91.5  Rx         0004  8  00 00 00 00 00 00 00 00 
   140)        91.6  Rx         0005  8  80 18 01 80 10 00 01 70 
   141)        91.7  Rx     00000801  8  00 00 00 7F FF 80 08 00 
   142)        91.9  Rx     00000802  8  00 00 00 7F FF 80 08 00 
   143)        92.4  Rx     00002901  8  FC 5D 00 00 FF FC 23 00 
   144)        92.9  Rx     00002902  8  FF DB 00 00 FF FC 21 00 
   145)        94.4  Rx     00002901  8  FC 5D 00 00 FF FD 23 00 
   146)        94.9  Rx     00002902  8  FF DB 00 00 FF F9 21 00 
   147)        95.4  Rx         0003  8  76 F2 6F 76 F2 6F 00 00 
   148)        95.5  Rx         0004  8  00 00 00 00 00 00 00 00 
   149)        95.6  Rx         0005  8  80 18 01 80 10 00 01 70 
   150)        95.8  Rx     00000801  8  00 00 00 7F FF 80 08 00 
   151)        95.9  Rx     00000802  8  00 00 00 7F FF 80 08 00 
   152)        96.4  Rx     00002901  8  FC 5D 00 00 FF FB 23 00 
   153)        96.9  Rx     00002902  8  FF DB 00 00 FF FA 21 00 
   154)        98.4  Rx     00002901  8  FC 5D 00 00 FF FE 23 00 
   155)        98.9  Rx     00002902  8  FF DB 00 00 FF FD 21 00 
   156)        99.3  Rx         0003  8  76 F2 6F 76 F2 6F 00 00 
   157)        99.5  Rx         0004  8  00 00 00 00 00 00 00 00 
   158)        99.6  Rx         0005  8  80 18 01 80 10 00 01 71 
   159)        99.8  Rx     00000801  8  00 00 00 7F FF 80 08 00 
   160)        99.9  Rx     00000802  8  00 00 00 7F FF 80 08 00 
   161)       100.4  Rx     00002901  8  FC 5D 00 00 00 01 23 00 
   162)       100.9  Rx     00002902  8  FF DB 00 00 FF FE 21 00 
   163)       102.5  Rx     00002901  8  FC 5D 00 00 FF FD 23 00 
   164)       102.8  Rx     00002902  8  FF DB 00 00 FF FE 21 00 
   165)       103.4  Rx         0003  8  76 F2 6F 76 F2 6F 00 00 
   166)       103.5  Rx         0004  8  00 00 00 00 00 00 00 00 
   167)       103.6  Rx         0005  8  80 18 01 80 10 00 01 70 
   168)       103.7  Rx     00000801  8  00 00 00 7F FF 80 08 00 
   169)       103.9  Rx     00000802  8  00 00 00 7F FF 80 08 00 
   170)       104.5  Rx     00002901  8  FC 5D 00 00 00 01 23 00 
   171)       104.8  Rx     00002902  8  FF DB 00 00 FF FD 21 00 
   172)       106.5  Rx     00002901  8  FC 5D 00 00 FF FD 23 00 
   173)       106.8  Rx     00002902  8  FF DB 00 00 FF FC 21 00 
   174)       107.4  Rx         0003  8  76 F2 6F 76 F2 6F 00 00 
   175)       107.5  Rx         0004  8  00 00 00 00 00 00 00 00 
   176)       107.6  Rx         0005  8  80 18 01 80 10 00 01 70 
   177)       107.7  Rx     00000801  8  00 00 00 7F FF 80 08 00 
   178)       107.9  Rx     00000802  8  00 00 00 7F FF 80 08 00 
   179)       108.5  Rx     00002901  8  FC 5D 00 00 FF FE 23 00 
   180)       108.9  Rx     00002902  8  FF DB 00 00 FF FD 21 00 
   181)       110.4  Rx     00002901  8  FC 5D 00 00 FF FC 23 00 
   182)       110.9  Rx     00002902  8  FF DB 00 00 FF FC 21 00 
   183)       111.4  Rx         0003  8  76 F2 6F 76 F2 6F 00 00 
   184)       111.5  Rx         0004  8  00 00 00 00 00 00 00 00 
   185)       111.6  Rx         0005  8  80 18 01 80 10 00 01 70 
   186)       111.8  Rx     00000801  8  00 00 00 7F FF 80 08 00 
   187)       111.9  Rx     00000802  8  00 00 00 7F FF 80 08 00 
   188)       112.5  Rx     00002901  8  FC 5D 00 00 00 02 23 00 
   189)       112.9  Rx     00002902  8  FF DB 00 00 00 00 21 00 
   190)       114.4  Rx     00002901  8  FC 5D 00 00 FF FC 23 00 
   191)       114.9  Rx     00002902  8  FF DB 00 00 FF FB 21 00 
   192)       115.3  Rx         0003  8  76 F2 6F 76 F2 6F 00 00 
   193)       115.5  Rx         0004  8  00 00 00 00 00 00 00 00 
   194)       115.6  Rx         0005  8  80 18 01 80 10 00 01 71 
   195)       115.7  Rx     00000801  8  00 00 00 7F FF 80 08 00 
   196)       115.9  Rx     00000802  8  00 00 00 7F FF 80 08 00 
   197)       116.4  Rx     00002901  8  FC 5D 00 00 00 01 23 00 
   198)       116.9  Rx     00002902  8  FF DB 00 00 FF FB 21 00 
   199)       118.5  Rx     00002901  8  FC 5D 00 00 FF FC 23 00 
   200)       118.8  Rx     00002902  8  FF DB 00 00 FF FD 21 00 
   201)       119.4  Rx         0003  8  76 F2 6F 76 F2 6F 00 00 
   202)       119.5  Rx         0004  8  00 00 00 00 00 00 00 00 
   203)       119.6  Rx         0005  8  80 18 01 80 10 00 01 70 
   204)       119.7  Rx     00000801  8  00 00 00 7F FF 80 08 00 
   205)       119.9  Rx     00000802  8  00 00 00 7F FF 80 08 00 
   206)       120.5  Rx     00002901  8  FC 5D 00 00 00 00 23 00 
   207)       120.9  Rx     00002902  8  FF DB 00 00 FF FE 21 00 
   208)       122.5  Rx     00002901  8  FC 5D 00 00 FF FD 23 00 
   209)       122.8  Rx     00002902  8  FF DB 00 00 FF FB 21 00 
   210)       123.4  Rx         0003  8  76 F2 6F 76 F2 6F 00 00 
   211)       123.5  Rx         0004  8  00 00 00 00 00 00 00 00 
   212)       123.6  Rx         0005  8  80 18 01 80 10 00 01 71 
   213)       123.7  Rx     00000801  8  00 00 00 7F FF 80 08 00 
   214)       123.9  Rx     00000802  8  00 00 00 7F FF 80 08 00 
   215)       124.5  Rx     00002901  8  FC 5D 00 00 00 01 23 00 
   216)       124.9  Rx     00002902  8  FF DB 00 00 FF FD 21 00 
   217)       126.5  Rx     00002901  8  FC 5D 00 00 FF FD 23 00 
   218)       126.9  Rx     00002902  8  FF DB 00 00 FF FF 21 00 
   219)       127.4  Rx         0003  8  76 F2 6F 76 F2 6F 00 00 
   220)       127.5  Rx         0004  8  00 00 00 00 00 00 00 00 
   221)       127.6  Rx         0005  8  80 18 01 80 10 00 01 71 
   222)       127.8  Rx     00000801  8  00 00 00 7F FF 80 08 00 
   223)       127.9  Rx     00000802  8  00 00 00 7F FF 80 08 00 
   224)       128.4  Rx     00002901  8  FC 5D 00 00 00 00 23 00 
   225)       128.9  Rx     00002902  8  FF DB 00 00 FF FD 21 00 
   226)       130.4  Rx     00002901  8  FC 5D 00 00 FF FD 23 00 
   227)       130.9  Rx     00002902  8  FF DB 00 00 FF FD 21 00 
   228)       131.3  Rx         0003  8  76 F2 6F 76 F2 6F 00 00 
   229)       131.5  Rx         0004  8  00 00 00 00 00 00 00 00 
   230)       131.6  Rx         0005  8  80 18 01 80 10 00 01 71 
   231)       131.8  Rx     00000801  8  00 00 00 7F FF 80 08 00 
   232)       131.9  Rx     00000802  8  00 00 00 7F FF 80 08 00 
   233)       132.4  Rx     00002901  8  FC 5D 00 00 00 02 23 00 
   234)       132.9  Rx     00002902  8  FF DB 00 00 FF FD 21 00 
   235)       134.5  Rx     00002901  8  FC 5D 00 00 FF FD 23 00 
   236)       134.8  Rx     00002902  8  FF DB 00 00 FF FC 21 00 
   237)       135.4  Rx         0003  8  76 F2 6F 76 F2 6F 00 00 
   238)       135.5  Rx         0004  8  00 00 00 00 00 00 00 00 
   239)       135.6  Rx         0005  8  80 18 01 80 10 00 01 71 
   240)       135.7  Rx     00000801  8  00 00 00 7F FF 80 08 00 
   241)       135.9  Rx     00000802  8  00 00 00 7F FF 80 08 00 
   242)       136.5  Rx     00002901  8  FC 5D 00 00 FF FE 23 00 
   243)       136.8  Rx     00002902  8  FF DB 00 00 FF FD 21 00 
   244)       138.5  Rx     00002901  8  FC 5D 00 00 FF FE 23 00 
   245)       138.8  Rx     00002902  8  FF DB 00 00 FF FC 21 00 
   246)       139.4  Rx         0003  8  76 F2 6F 76 F2 6F 00 00 
   247)       139.5  Rx         0004  8  00 00 00 00 00 00 00 00 
   248)       139.6  Rx         0005  8  80 18 01 80 10 00 01 70 
   249)       139.7  Rx     00000801  8  00 00 00 7F FF 80 08 00 
   250)       139.9  Rx     00000802  8  00 00 00 7F FF 80 08 00 
   251)       140.5  Rx     00002901  8  FC 5D 00 00 00 01 23 00 
   252)       140.9  Rx     00002902  8  FF DB 00 00 FF FC 21 00 
   253)       142.5  Rx     00002901  8  FC 5D 00 00 FF FB 23 00 
   254)       142.9  Rx     00002902  8  FF DB 00 00 FF FD 21 00 
   255)       143.3  Rx         0003  8  76 F2 6F 76 F2 6F 00 00 
   256)       143.5  Rx         0004  8  00 00 00 00 00 00 00 00 
   257)       143.6  Rx         0005  8  80 18 01 80 10 00 01 70 
   258)       143.8  Rx     00000801  8  00 00 00 7F FF 80 08 00 
   259)       143.9  Rx     00000802  8  00 00 00 7F FF 80 08 00 
   260)       144.4  Rx     00002901  8  FC 5D 00 00 00 00 23 00 
   261)       144.9  Rx     00002902  8  FF DB 00 00 FF FE 21 00 
   262)       146.5  Rx     00002901  8  FC 5D 00 00 FF FE 23 00 
   263)       146.9  Rx     00002902  8  FF DB 00 00 FF FB 21 00 
   264)       147.3  Rx         0003  8  76 F2 6F 76 F2 6F 00 00 
   265)       147.5  Rx         0004  8  00 00 00 00 00 00 00 00 
   266)       147.6  Rx         0005  8  80 18 01 80 10 00 01 70 
   267)       147.8  Rx     00000801  8  00 00 00 7F FF 80 08 00 
   268)       147.9  Rx     00000802  8  00 00 00 7F FF 80 08 00 
   269)       148.4  Rx     00002901  8  FC 5D 00 00 FF FF 23 00 
   270)       148.9  Rx     00002902  8  FF DB 00 00 FF FB 21 00 
   271)       150.5  Rx     00002901  8  FC 5D 00 00 FF FD 23 00 
   272)       150.8  Rx     00002902  8  FF DB 00 00 FF FE 21 00 
   273)       151.3  Rx         0003  8  76 F2 6F 76 F2 6F 00 00 
   274)       151.5  Rx         0004  8  00 00 00 00 00 00 00 00 
   275)       151.6  Rx         0005  8  80 18 01 80 10 00 01 70 
   276)       151.7  Rx     00000801  8  00 00 00 7F FF 80 08 00 
   277)       151.9  Rx     00000802  8  00 00 00 7F FF 80 08 00 
   278)       152.5  Rx     00002901  8  FC 5D 00 00 00 01 23 00 
   279)       152.8  Rx     00002902  8  FF DB 00 00 FF FE 21 00 
   280)       154.5  Rx     00002901  8  FC 5D 00 00 FF FD 23 00 
   281)       154.8  Rx     00002902  8  FF DB 00 00 FF FB 21 00 
   282)       155.4  Rx         0003  8  76 F2 6F 76 F2 6F 00 00 
   283)       155.5  Rx         0004  8  00 00 00 00 00 00 00 00 
   284)       155.6  Rx         0005  8  80 18 01 80 10 00 01 70 
   285)       155.7  Rx     00000801  8  00 00 00 7F FF 80 08 00 
   286)       155.9  Rx     00000802  8  00 00 00 7F FF 80 08 00 
   287)       156.5  Rx     00002901  8  FC 5D 00 00 00 00 23 00 
   288)       156.9  Rx     00002902  8  FF DB 00 00 00 00 21 00 
   289)       158.5  Rx     00002901  8  FC 5D 00 00 FF FB 23 00 
   290)       158.9  Rx     00002902  8  FF DB 00 00 FF FE 21 00 
   291)       159.3  Rx         0003  8  76 F2 6F 76 F2 6F 00 00 
   292)       159.5  Rx         0004  8  00 00 00 00 00 00 00 00 
   293)       159.6  Rx         0005  8  80 18 01 80 10 00 01 70 
   294)       159.8  Rx     00000801  8  00 00 00 7F FF 80 08 00 
   295)       159.9  Rx     00000802  8  00 00 00 7F FF 80 08 00 
   296)       160.4  Rx     00002901  8  FC 5D 00 00 00 01 23 00 
   297)       160.9  Rx     00002902  8  FF DB 00 00 FF FD 21 00 
   298)       162.4  Rx     00002901  8  FC 5D 00 00 FF FF 23 00 
   299)       162.9  Rx     00002902  8  FF DB 00 00 FF FD 21 00 
   300)       163.3  Rx         0003  8  76 F2 6F 76 F2 6F 00 00 
   301)       163.5  Rx         0004  8  00 00 00 00 00 00 00 00 
   302)       163.6  Rx         0005  8  80 18 01 80 10 00 01 70 
   303)       163.8  Rx     00000801  8  00 00 00 7F FF 80 08 00 
   304)       163.9  Rx     00000802  8  00 00 00 7F FF 80 08 00 
   305)       164.4  Rx     00002901  8  FC 5D 00 00 00 01 23 00 
   306)       164.9  Rx     00002902  8  FF DB 00 00 FF FF 21 00 
   307)       166.5  Rx     00002901  8  FC 5D 00 00 FF FC 23 00 
   308)       166.8  Rx     00002902  8  FF DB 00 00 FF FE 21 00 
   309)       167.3  Rx         0003  8  76 F2 6F 76 F2 6F 00 00 
   310)       167.5  Rx         0004  8  00 00 00 00 00 00 00 00 
   311)       167.6  Rx         0005  8  80 18 01 80 10 00 01 70 
   312)       167.8  Rx     00000801  8  00 00 00 7F FF 80 08 00 
   313)       167.9  Rx     00000802  8  00 00 00 7F FF 80 08 00 
   314)       168.5  Rx     00002901  8  FC 5D 00 00 00 01 23 00 
   315)       168.8  Rx     00002902  8  FF DB 00 00 FF FC 21 00 
   316)       170.5  Rx     00002901  8  FC 5D 00 00 FF F9 23 00 
   317)       170.8  Rx     00002902  8  FF DB 00 00 FF FC 21 00 
   318)       171.4  Rx         0003  8  76 F2 6F 76 F2 6F 00 00 
   319)       171.5  Rx         0004  8  00 00 00 00 00 00 00 00 
   320)       171.6  Rx         0005  8  80 18 01 80 10 00 01 71 
   321)       171.7  Rx     00000801  8  00 00 00 7F FF 80 08 00 
   322)       171.9  Rx     00000802  8  00 00 00 7F FF 80 08 00 
   323)       172.5  Rx     00002901  8  FC 5D 00 00 00 03 23 00 
   324)       172.9  Rx     00002902  8  FF DB 00 00 FF FD 21 00 
   325)       174.5  Rx     00002901  8  FC 5D 00 00 FF FC 23 00 
   326)       174.9  Rx     00002902  8  FF DB 00 00 FF FE 21 00 
   327)       175.4  Rx         0003  8  76 F2 6F 76 F2 6F 00 00 
   328)       175.5  Rx         0004  8  00 00 00 00 00 00 00 00 
   329)       175.6  Rx         0005  8  80 18 01 80 10 00 01 71 
   330)       175.8  Rx     00000801  8  00 00 00 7F FF 80 08 00 
   331)       175.9  Rx     00000802  8  00 00 00 7F FF 80 08 00 
   332)       176.4  Rx     00002901  8  FC 5D 00 00 00 00 23 00 
   333)       176.9  Rx     00002902  8  FF DB 00 00 FF FF 21 00 
   334)       178.4  Rx     00002901  8  FC 5D 00 00 FF FD 23 00 
   335)       178.9  Rx     00002902  8  FF DB 00 00 FF FD 21 00 
   336)       179.3  Rx         0003  8  76 F2 6F 76 F2 6F 00 00 
   337)       179.5  Rx         0004  8  00 00 00 00 00 00 00 00 
   338)       179.6  Rx         0005  8  80 18 01 80 10 00 01 71 
   339)       179.8  Rx     00000801  8  00 00 00 7F FF 80 08 00 
   340)       179.9  Rx     00000802  8  00 00 00 7F FF 80 08 00 
   341)       180.4  Rx     00002901  8  FC 5D 00 00 00 04 23 00 
   342)       180.8  Rx     00002902  8  FF DB 00 00 FF FD 21 00 
   343)       182.5  Rx     00002901  8  FC 5D 00 00 FF FC 23 00 
   344)       182.9  Rx     00002902  8  FF DB 00 00 FF FE 21 00 
   345)       183.3  Rx         0003  8  76 F2 6F 76 F2 6F 00 00 
   346)       183.5  Rx         0004  8  00 00 00 00 00 00 00 00 
   347)       183.6  Rx         0005  8  80 18 01 80 10 00 01 71 
   348)       183.8  Rx     00000801  8  00 00 00 7F FF 80 08 00 
   349)       183.9  Rx     00000802  8  00 00 00 7F FF 80 08 00 
   350)       184.5  Rx     00002901  8  FC 5D 00 00 00 01 23 00 
   351)       184.8  Rx     00002902  8  FF DB 00 00 FF FF 21 00 
   352)       186.5  Rx     00002901  8  FC 5D 00 00 FF FB 23 00 
   353)       186.8  Rx     00002902  8  FF DB 00 00 FF FC 21 00 
   354)       187.4  Rx         0003  8  76 F2 6F 76 F2 6F 00 00 
   355)       187.5  Rx         0004  8  00 00 00 00 00 00 00 00 
   356)       187.6  Rx         0005  8  80 18 01 80 10 00 01 70 
   357)       187.7  Rx     00000801  8  00 00 00 7F FF 80 08 00 
   358)       187.9  Rx     00000802  8  00 00 00 7F FF 80 08 00 
   359)       188.5  Rx     00002901  8  FC 5D 00 00 00 03 23 00 
   360)       188.9  Rx     00002902  8  FF DB 00 00 FF FE 21 00 
   361)       190.5  Rx     00002901  8  FC 5D 00 00 FF FC 23 00 
   362)       190.9  Rx     00002902  8  FF DB 00 00 FF FC 21 00 
   363)       191.4  Rx         0003  8  76 F2 6F 76 F2 6F 00 00 
   364)       191.5  Rx         0004  8  00 00 00 00 00 00 00 00 
   365)       191.6  Rx         0005  8  80 18 01 80 10 00 01 70 
   366)       191.8  Rx     00000801  8  00 00 00 7F FF 80 08 00 
   367)       191.9  Rx     00000802  8  00 00 00 7F FF 80 08 00 
   368)       192.5  Rx     00002901  8  FC 5D 00 00 00 03 23 00 
   369)       192.9  Rx     00002902  8  FF DB 00 00 FF FE 21 00 
   370)       194.4  Rx     00002901  8  FC 5D 00 00 FF FA 23 00 
   371)       194.9  Rx     00002902  8  FF DB 00 00 FF FE 21 00 
