;$FILEVERSION=1.1
;$STARTTIME=45779.5285125231
;
;   Start time: 5/2/2025 12:41:03.482.0
;   Generated by PCAN-View v5.3.2.952
;
;   Message Number
;   |         Time Offset (ms)
;   |         |        Type
;   |         |        |        ID (hex)
;   |         |        |        |     Data Length
;   |         |        |        |     |   Data Bytes (hex) ...
;   |         |        |        |     |   |
;---+--   ----+----  --+--  ----+---  +  -+ -- -- -- -- -- -- --
     1)         1.0  Rx     00002901  8  FC 62 00 00 FF FF 25 00 
     2)         1.6  Rx     00002902  8  FF DE 00 00 00 00 23 00 
     3)         2.9  Rx         0003  8  77 A2 74 77 A2 74 00 00 
     4)         3.0  Rx     00002901  8  FC 62 00 00 FF FF 25 00 
     5)         3.1  Rx         0004  8  00 00 00 00 00 00 00 00 
     6)         3.2  Rx         0005  8  80 18 01 80 10 00 02 00 
     7)         3.4  Rx     00000801  8  00 00 00 7F FF 80 08 00 
     8)         3.6  Rx     00000802  8  00 00 00 7F FF 80 08 00 
     9)         3.7  Rx     00002902  8  FF DE 00 00 00 03 23 00 
    10)         4.9  Rx     00002901  8  FC 62 00 00 FF FF 25 00 
    11)         5.6  Rx     00002902  8  FF DE 00 00 00 00 23 00 
    12)         6.9  Rx         0003  8  77 A2 74 77 A2 74 00 00 
    13)         7.0  Rx     00002901  8  FC 62 00 00 FF FF 25 00 
    14)         7.1  Rx         0004  8  00 00 00 00 00 00 00 00 
    15)         7.2  Rx         0005  8  80 18 01 80 10 00 02 01 
    16)         7.4  Rx     00000801  8  00 00 00 7F FF 80 08 00 
    17)         7.5  Rx     00000802  8  00 00 00 7F FF 80 08 00 
    18)         7.7  Rx     00002902  8  FF DE 00 00 00 00 23 00 
    19)         9.0  Rx     00002901  8  FC 62 00 00 00 00 25 00 
    20)         9.6  Rx     00002902  8  FF DE 00 00 00 01 23 00 
    21)        10.9  Rx         0003  8  77 A2 74 77 A2 74 00 00 
    22)        11.0  Rx     00002901  8  FC 62 00 00 FF FD 25 00 
    23)        11.1  Rx         0004  8  00 00 00 00 00 00 00 00 
    24)        11.3  Rx         0005  8  80 18 01 80 10 00 02 02 
    25)        11.4  Rx     00000801  8  00 00 00 7F FF 80 08 00 
    26)        11.6  Rx     00000802  8  00 00 00 7F FF 80 08 00 
    27)        11.7  Rx     00002902  8  FF DE 00 00 00 01 23 00 
    28)        13.0  Rx     00002901  8  FC 62 00 00 00 00 25 00 
    29)        13.6  Rx     00002902  8  FF DE 00 00 00 00 23 00 
    30)        14.9  Rx         0003  8  77 A2 74 77 A2 74 00 00 
    31)        15.0  Rx     00002901  8  FC 62 00 00 FF FD 25 00 
    32)        15.1  Rx         0004  8  00 00 00 00 00 00 00 00 
    33)        15.3  Rx         0005  8  80 18 01 80 10 00 02 01 
    34)        15.4  Rx     00000801  8  00 00 00 7F FF 80 08 00 
    35)        15.6  Rx     00000802  8  00 00 00 7F FF 80 08 00 
    36)        15.7  Rx     00002902  8  FF DE 00 00 00 01 23 00 
    37)        16.9  Rx     00002901  8  FC 62 00 00 FF FF 25 00 
    38)        17.6  Rx     00002902  8  FF DE 00 00 00 01 23 00 
    39)        18.9  Rx         0003  8  77 A2 74 77 A2 74 00 00 
    40)        19.0  Rx     00002901  8  FC 62 00 00 00 00 25 00 
    41)        19.2  Rx         0004  8  00 00 00 00 00 00 00 00 
    42)        19.3  Rx         0005  8  80 18 01 80 10 00 02 03 
    43)        19.4  Rx     00000801  8  00 00 00 7F FF 80 08 00 
    44)        19.6  Rx     00000802  8  00 00 00 7F FF 80 08 00 
    45)        19.7  Rx     00002902  8  FF DE 00 00 00 00 23 00 
    46)        20.9  Rx     00002901  8  FC 62 00 00 FF FF 25 00 
    47)        21.6  Rx     00002902  8  FF DE 00 00 00 00 23 00 
    48)        22.9  Rx         0003  8  77 A2 74 77 A2 74 00 00 
    49)        23.0  Rx     00002901  8  FC 62 00 00 FF FF 25 00 
    50)        23.1  Rx         0004  8  00 00 00 00 00 00 00 00 
    51)        23.2  Rx         0005  8  80 18 01 80 10 00 02 04 
    52)        23.4  Rx     00000801  8  00 00 00 7F FF 80 08 00 
    53)        23.5  Rx     00000802  8  00 00 00 7F FF 80 08 00 
    54)        23.7  Rx     00002902  8  FF DE 00 00 00 00 23 00 
    55)        25.0  Rx     00002901  8  FC 62 00 00 00 00 25 00 
    56)        25.6  Rx     00002902  8  FF DE 00 00 00 00 23 00 
    57)        26.9  Rx         0003  8  77 A2 74 77 A2 74 00 00 
    58)        27.0  Rx     00002901  8  FC 62 00 00 FF FD 25 00 
    59)        27.1  Rx         0004  8  00 00 00 00 00 00 00 00 
    60)        27.3  Rx         0005  8  80 18 01 80 10 00 02 02 
    61)        27.4  Rx     00000801  8  00 00 00 7F FF 80 08 00 
    62)        27.6  Rx     00000802  8  00 00 00 7F FF 80 08 00 
    63)        27.7  Rx     00002902  8  FF DE 00 00 00 00 23 00 
    64)        29.0  Rx     00002901  8  FC 62 00 00 00 00 25 00 
    65)        29.6  Rx     00002902  8  FF DE 00 00 00 00 23 00 
    66)        30.9  Rx         0003  8  77 A2 74 77 A2 74 00 00 
    67)        31.0  Rx     00002901  8  FC 62 00 00 FF FE 25 00 
    68)        31.1  Rx         0004  8  00 00 00 00 00 00 00 00 
    69)        31.3  Rx         0005  8  80 18 01 80 10 00 02 01 
    70)        31.4  Rx     00000801  8  00 00 00 7F FF 80 08 00 
    71)        31.6  Rx     00000802  8  00 00 00 7F FF 80 08 00 
    72)        31.7  Rx     00002902  8  FF DE 00 00 00 01 23 00 
    73)        33.0  Rx     00002901  8  FC 62 00 00 00 00 25 00 
    74)        33.6  Rx     00002902  8  FF DE 00 00 00 02 23 00 
    75)        34.9  Rx         0003  8  77 A2 74 77 A2 74 00 00 
    76)        35.0  Rx     00002901  8  FC 62 00 00 FF FF 25 00 
    77)        35.2  Rx         0004  8  00 00 00 00 00 00 00 00 
    78)        35.3  Rx         0005  8  80 18 01 80 10 00 02 03 
    79)        35.4  Rx     00000801  8  00 00 00 7F FF 80 08 00 
    80)        35.6  Rx     00000802  8  00 00 00 7F FF 80 08 00 
    81)        35.7  Rx     00002902  8  FF DE 00 00 00 02 23 00 
    82)        36.9  Rx     00002901  8  FC 62 00 00 FF FF 25 00 
    83)        37.6  Rx     00002902  8  FF DE 00 00 00 01 23 00 
    84)        38.9  Rx         0003  8  77 A2 74 77 A2 74 00 00 
    85)        39.0  Rx     00002901  8  FC 62 00 00 FF FD 25 00 
    86)        39.2  Rx         0004  8  00 00 00 00 00 00 00 00 
    87)        39.2  Rx         0005  8  80 18 01 80 10 00 02 04 
    88)        39.4  Rx     00000801  8  00 00 00 7F FF 80 08 00 
    89)        39.5  Rx     00000802  8  00 00 00 7F FF 80 08 00 
    90)        39.7  Rx     00002902  8  FF DE 00 00 00 00 23 00 
    91)        41.0  Rx     00002901  8  FC 62 00 00 FF FF 25 00 
    92)        41.6  Rx     00002902  8  FF DE 00 00 00 01 23 00 
    93)        42.9  Rx         0003  8  77 A2 74 77 A2 74 00 00 
    94)        43.0  Rx     00002901  8  FC 62 00 00 FF FE 25 00 
    95)        43.1  Rx         0004  8  00 00 00 00 00 00 00 00 
    96)        43.3  Rx         0005  8  80 18 01 80 10 00 02 01 
    97)        43.4  Rx     00000801  8  00 00 00 7F FF 80 08 00 
    98)        43.6  Rx     00000802  8  00 00 00 7F FF 80 08 00 
    99)        43.7  Rx     00002902  8  FF DE 00 00 00 00 23 00 
   100)        45.0  Rx     00002901  8  FC 62 00 00 FF FF 25 00 
   101)        45.6  Rx     00002902  8  FF DE 00 00 00 02 23 00 
   102)        46.9  Rx         0003  8  77 A2 74 77 A2 74 00 00 
   103)        47.0  Rx     00002901  8  FC 62 00 00 FF FF 25 00 
   104)        47.1  Rx         0004  8  00 00 00 00 00 00 00 00 
   105)        47.3  Rx         0005  8  80 18 01 80 10 00 02 02 
   106)        47.4  Rx     00000801  8  00 00 00 7F FF 80 08 00 
   107)        47.6  Rx     00000802  8  00 00 00 7F FF 80 08 00 
   108)        47.7  Rx     00002902  8  FF DE 00 00 00 02 23 00 
   109)        49.0  Rx     00002901  8  FC 62 00 00 00 00 25 00 
   110)        49.6  Rx     00002902  8  FF DE 00 00 00 01 23 00 
   111)        50.9  Rx         0003  8  77 A2 74 77 A2 74 00 00 
   112)        51.0  Rx     00002901  8  FC 62 00 00 FF FF 25 00 
   113)        51.2  Rx         0004  8  00 00 00 00 00 00 00 00 
   114)        51.3  Rx         0005  8  80 18 01 80 10 00 02 00 
   115)        51.4  Rx     00000801  8  00 00 00 7F FF 80 08 00 
   116)        51.5  Rx     00000802  8  00 00 00 7F FF 80 08 00 
   117)        51.7  Rx     00002902  8  FF DE 00 00 00 02 23 00 
   118)        53.0  Rx     00002901  8  FC 62 00 00 00 00 25 00 
   119)        53.6  Rx     00002902  8  FF DE 00 00 00 00 23 00 
   120)        54.9  Rx         0003  8  77 A2 74 77 A2 74 00 00 
   121)        55.0  Rx     00002901  8  FC 62 00 00 FF FE 25 00 
   122)        55.2  Rx         0004  8  00 00 00 00 00 00 00 00 
   123)        55.3  Rx         0005  8  80 18 01 80 10 00 02 01 
   124)        55.4  Rx     00000801  8  00 00 00 7F FF 80 08 00 
   125)        55.5  Rx     00000802  8  00 00 00 7F FF 80 08 00 
   126)        55.7  Rx     00002902  8  FF DE 00 00 00 01 23 00 
   127)        57.0  Rx     00002901  8  FC 62 00 00 00 00 25 00 
   128)        57.6  Rx     00002902  8  FF DE 00 00 00 01 23 00 
   129)        58.9  Rx         0003  8  77 A2 74 77 A2 74 00 00 
   130)        59.0  Rx     00002901  8  FC 62 00 00 00 00 25 00 
   131)        59.2  Rx         0004  8  00 00 00 00 00 00 00 00 
   132)        59.3  Rx         0005  8  80 18 01 80 10 00 02 03 
   133)        59.4  Rx     00000801  8  00 00 00 7F FF 80 08 00 
   134)        59.6  Rx     00000802  8  00 00 00 7F FF 80 08 00 
   135)        59.7  Rx     00002902  8  FF DE 00 00 00 02 23 00 
   136)        61.0  Rx     00002901  8  FC 62 00 00 FF FF 25 00 
   137)        61.6  Rx     00002902  8  FF DE 00 00 00 02 23 00 
   138)        62.9  Rx         0003  8  77 A2 74 77 A2 74 00 00 
   139)        63.0  Rx     00002901  8  FC 62 00 00 FF FF 25 00 
   140)        63.1  Rx         0004  8  00 00 00 00 00 00 00 00 
   141)        63.3  Rx         0005  8  80 18 01 80 10 00 02 05 
   142)        63.4  Rx     00000801  8  00 00 00 7F FF 80 08 00 
   143)        63.6  Rx     00000802  8  00 00 00 7F FF 80 08 00 
   144)        63.7  Rx     00002902  8  FF DE 00 00 00 01 23 00 
   145)        65.0  Rx     00002901  8  FC 62 00 00 00 00 25 00 
   146)        65.6  Rx     00002902  8  FF DE 00 00 00 01 23 00 
   147)        66.9  Rx         0003  8  77 A2 74 77 A2 74 00 00 
   148)        67.0  Rx     00002901  8  FC 62 00 00 00 01 25 00 
   149)        67.1  Rx         0004  8  00 00 00 00 00 00 00 00 
   150)        67.3  Rx         0005  8  80 18 01 80 10 00 02 02 
   151)        67.4  Rx     00000801  8  00 00 00 7F FF 80 08 00 
   152)        67.6  Rx     00000802  8  00 00 00 7F FF 80 08 00 
   153)        67.7  Rx     00002902  8  FF DE 00 00 00 00 23 00 
   154)        69.0  Rx     00002901  8  FC 62 00 00 FF FF 25 00 
   155)        69.6  Rx     00002902  8  FF DE 00 00 00 00 23 00 
   156)        70.9  Rx         0003  8  77 A2 74 77 A2 74 00 00 
   157)        71.0  Rx     00002901  8  FC 62 00 00 00 00 25 00 
   158)        71.2  Rx         0004  8  00 00 00 00 00 00 00 00 
   159)        71.3  Rx         0005  8  80 18 01 80 10 00 02 01 
   160)        71.4  Rx     00000801  8  00 00 00 7F FF 80 08 00 
   161)        71.5  Rx     00000802  8  00 00 00 7F FF 80 08 00 
   162)        71.7  Rx     00002902  8  FF DE 00 00 00 00 23 00 
   163)        73.0  Rx     00002901  8  FC 62 00 00 00 00 25 00 
   164)        73.5  Rx     00002902  8  FF DE 00 00 00 00 23 00 
   165)        74.9  Rx         0003  8  77 A2 74 77 A2 74 00 00 
   166)        75.0  Rx     00002901  8  FC 62 00 00 00 00 25 00 
   167)        75.2  Rx         0004  8  00 00 00 00 00 00 00 00 
   168)        75.3  Rx         0005  8  80 18 01 80 10 00 02 05 
   169)        75.4  Rx     00000801  8  00 00 00 7F FF 80 08 00 
   170)        75.6  Rx     00000802  8  00 00 00 7F FF 80 08 00 
   171)        75.7  Rx     00002902  8  FF DE 00 00 00 03 23 00 
   172)        77.0  Rx     00002901  8  FC 62 00 00 FF FD 25 00 
   173)        77.6  Rx     00002902  8  FF DE 00 00 00 02 23 00 
   174)        78.9  Rx         0003  8  77 A2 74 77 A2 74 00 00 
   175)        79.0  Rx     00002901  8  FC 62 00 00 FF FD 25 00 
   176)        79.1  Rx         0004  8  00 00 00 00 00 00 00 00 
   177)        79.3  Rx         0005  8  80 18 01 80 10 00 02 04 
   178)        79.4  Rx     00000801  8  00 00 00 7F FF 80 08 00 
   179)        79.6  Rx     00000802  8  00 00 00 7F FF 80 08 00 
   180)        79.7  Rx     00002902  8  FF DE 00 00 00 00 23 00 
   181)        81.0  Rx     00002901  8  FC 62 00 00 FF FE 25 00 
   182)        81.6  Rx     00002902  8  FF DE 00 00 00 00 23 00 
   183)        82.9  Rx         0003  8  77 A2 74 77 A2 74 00 00 
   184)        83.0  Rx     00002901  8  FC 62 00 00 FF FD 25 00 
   185)        83.1  Rx         0004  8  00 00 00 00 00 00 00 00 
   186)        83.3  Rx         0005  8  80 18 01 80 10 00 02 01 
   187)        83.4  Rx     00000801  8  00 00 00 7F FF 80 08 00 
   188)        83.6  Rx     00000802  8  00 00 00 7F FF 80 08 00 
   189)        83.7  Rx     00002902  8  FF DE 00 00 00 00 23 00 
   190)        84.9  Rx     00002901  8  FC 62 00 00 00 00 25 00 
   191)        85.6  Rx     00002902  8  FF DE 00 00 00 01 23 00 
   192)        86.9  Rx         0003  8  77 A2 74 77 A2 74 00 00 
   193)        87.0  Rx     00002901  8  FC 62 00 00 00 00 25 00 
   194)        87.1  Rx         0004  8  00 00 00 00 00 00 00 00 
   195)        87.2  Rx         0005  8  80 18 01 80 10 00 02 03 
   196)        87.4  Rx     00000801  8  00 00 00 7F FF 80 08 00 
   197)        87.6  Rx     00000802  8  00 00 00 7F FF 80 08 00 
   198)        87.7  Rx     00002902  8  FF DE 00 00 00 01 23 00 
   199)        89.0  Rx     00002901  8  FC 62 00 00 FF FF 25 00 
   200)        89.6  Rx     00002902  8  FF DE 00 00 00 01 23 00 
   201)        90.9  Rx         0003  8  77 A2 74 77 A2 74 00 00 
   202)        91.0  Rx     00002901  8  FC 62 00 00 00 00 25 00 
   203)        91.2  Rx         0004  8  00 00 00 00 00 00 00 00 
   204)        91.3  Rx         0005  8  80 18 01 80 10 00 02 05 
   205)        91.4  Rx     00000801  8  00 00 00 7F FF 80 08 00 
   206)        91.6  Rx     00000802  8  00 00 00 7F FF 80 08 00 
   207)        91.7  Rx     00002902  8  FF DE 00 00 00 02 23 00 
   208)        93.0  Rx     00002901  8  FC 62 00 00 00 00 25 00 
   209)        93.6  Rx     00002902  8  FF DE 00 00 00 00 23 00 
   210)        94.9  Rx         0003  8  77 A2 74 77 A2 74 00 00 
   211)        95.0  Rx     00002901  8  FC 62 00 00 00 00 25 00 
   212)        95.1  Rx         0004  8  00 00 00 00 00 00 00 00 
   213)        95.3  Rx         0005  8  80 18 01 80 10 00 02 03 
   214)        95.4  Rx     00000801  8  00 00 00 7F FF 80 08 00 
   215)        95.6  Rx     00000802  8  00 00 00 7F FF 80 08 00 
   216)        95.7  Rx     00002902  8  FF DE 00 00 00 01 23 00 
   217)        97.0  Rx     00002901  8  FC 62 00 00 FF FF 25 00 
   218)        97.6  Rx     00002902  8  FF DE 00 00 00 02 23 00 
   219)        98.9  Rx         0003  8  77 A2 74 77 A2 74 00 00 
   220)        99.0  Rx     00002901  8  FC 62 00 00 FF FF 25 00 
   221)        99.1  Rx         0004  8  00 00 00 00 00 00 00 00 
   222)        99.3  Rx         0005  8  80 18 01 80 10 00 02 05 
   223)        99.4  Rx     00000801  8  00 00 00 7F FF 80 08 00 
   224)        99.6  Rx     00000802  8  00 00 00 7F FF 80 08 00 
   225)        99.7  Rx     00002902  8  FF DE 00 00 00 00 23 00 
   226)       100.9  Rx     00002901  8  FC 62 00 00 00 00 25 00 
   227)       101.6  Rx     00002902  8  FF DE 00 00 00 01 23 00 
   228)       102.9  Rx         0003  8  77 A2 74 77 A2 74 00 00 
   229)       103.0  Rx     00002901  8  FC 62 00 00 FF FE 25 00 
   230)       103.2  Rx         0004  8  00 00 00 00 00 00 00 00 
   231)       103.3  Rx         0005  8  80 18 01 80 10 00 02 01 
   232)       103.4  Rx     00000801  8  00 00 00 7F FF 80 08 00 
   233)       103.6  Rx     00000802  8  00 00 00 7F FF 80 08 00 
   234)       103.7  Rx     00002902  8  FF DE 00 00 00 02 23 00 
   235)       105.0  Rx     00002901  8  FC 62 00 00 FF FF 25 00 
   236)       105.5  Rx     00002902  8  FF DE 00 00 00 00 23 00 
   237)       106.9  Rx         0003  8  77 A2 74 77 A2 74 00 00 
   238)       107.0  Rx     00002901  8  FC 62 00 00 00 01 25 00 
   239)       107.1  Rx         0004  8  00 00 00 00 00 00 00 00 
   240)       107.3  Rx         0005  8  80 18 01 80 10 00 02 03 
   241)       107.4  Rx     00000801  8  00 00 00 7F FF 80 08 00 
   242)       107.6  Rx     00000802  8  00 00 00 7F FF 80 08 00 
   243)       107.7  Rx     00002902  8  FF DE 00 00 00 03 23 00 
   244)       109.0  Rx     00002901  8  FC 62 00 00 FF FF 25 00 
   245)       109.6  Rx     00002902  8  FF DE 00 00 00 00 23 00 
   246)       110.9  Rx         0003  8  77 A2 74 77 A2 74 00 00 
   247)       111.0  Rx     00002901  8  FC 62 00 00 00 00 25 00 
   248)       111.1  Rx         0004  8  00 00 00 00 00 00 00 00 
   249)       111.3  Rx         0005  8  80 18 01 80 10 00 02 03 
   250)       111.4  Rx     00000801  8  00 00 00 7F FF 80 08 00 
   251)       111.6  Rx     00000802  8  00 00 00 7F FF 80 08 00 
   252)       111.7  Rx     00002902  8  FF DE 00 00 00 01 23 00 
   253)       113.0  Rx     00002901  8  FC 62 00 00 00 00 25 00 
   254)       113.6  Rx     00002902  8  FF DE 00 00 00 00 23 00 
   255)       114.9  Rx         0003  8  77 A2 74 77 A2 74 00 00 
   256)       115.0  Rx     00002901  8  FC 62 00 00 00 00 25 00 
   257)       115.1  Rx         0004  8  00 00 00 00 00 00 00 00 
   258)       115.3  Rx         0005  8  80 18 01 80 10 00 02 05 
   259)       115.4  Rx     00000801  8  00 00 00 7F FF 80 08 00 
   260)       115.6  Rx     00000802  8  00 00 00 7F FF 80 08 00 
   261)       115.7  Rx     00002902  8  FF DE 00 00 00 01 23 00 
   262)       116.9  Rx     00002901  8  FC 62 00 00 FF FE 25 00 
   263)       117.6  Rx     00002902  8  FF DE 00 00 00 00 23 00 
   264)       118.9  Rx         0003  8  77 A2 74 77 A2 74 00 00 
   265)       119.0  Rx     00002901  8  FC 62 00 00 FF FD 25 00 
   266)       119.2  Rx         0004  8  00 00 00 00 00 00 00 00 
   267)       119.3  Rx         0005  8  80 18 01 80 10 00 02 03 
   268)       119.4  Rx     00000801  8  00 00 00 7F FF 80 08 00 
   269)       119.5  Rx     00000802  8  00 00 00 7F FF 80 08 00 
   270)       119.7  Rx     00002902  8  FF DE 00 00 00 00 23 00 
   271)       121.0  Rx     00002901  8  FC 62 00 00 FF FF 25 00 
   272)       121.5  Rx     00002902  8  FF DE 00 00 00 01 23 00 
   273)       122.9  Rx         0003  8  77 A2 74 77 A2 74 00 00 
   274)       123.0  Rx     00002901  8  FC 62 00 00 FF FF 25 00 
   275)       123.1  Rx         0004  8  00 00 00 00 00 00 00 00 
   276)       123.3  Rx         0005  8  80 18 01 80 10 00 02 02 
   277)       123.4  Rx     00000801  8  00 00 00 7F FF 80 08 00 
   278)       123.6  Rx     00000802  8  00 00 00 7F FF 80 08 00 
   279)       123.7  Rx     00002902  8  FF DE 00 00 00 02 23 00 
   280)       125.0  Rx     00002901  8  FC 62 00 00 00 00 25 00 
   281)       125.6  Rx     00002902  8  FF DE 00 00 00 01 23 00 
   282)       126.9  Rx         0003  8  77 A2 74 77 A2 74 00 00 
   283)       127.0  Rx     00002901  8  FC 62 00 00 00 01 25 00 
   284)       127.1  Rx         0004  8  00 00 00 00 00 00 00 00 
   285)       127.3  Rx         0005  8  80 18 01 80 10 00 02 01 
   286)       127.4  Rx     00000801  8  00 00 00 7F FF 80 08 00 
   287)       127.6  Rx     00000802  8  00 00 00 7F FF 80 08 00 
   288)       127.7  Rx     00002902  8  FF DE 00 00 00 01 23 00 
   289)       129.0  Rx     00002901  8  FC 62 00 00 00 01 25 00 
   290)       129.6  Rx     00002902  8  FF DE 00 00 00 00 23 00 
   291)       130.9  Rx         0003  8  77 A2 74 77 A2 74 00 00 
   292)       131.0  Rx     00002901  8  FC 62 00 00 FF FE 25 00 
   293)       131.1  Rx         0004  8  00 00 00 00 00 00 00 00 
   294)       131.3  Rx         0005  8  80 18 01 80 10 00 02 03 
   295)       131.4  Rx     00000801  8  00 00 00 7F FF 80 08 00 
   296)       131.6  Rx     00000802  8  00 00 00 7F FF 80 08 00 
   297)       131.7  Rx     00002902  8  FF DE 00 00 00 03 23 00 
   298)       133.0  Rx     00002901  8  FC 62 00 00 00 00 25 00 
   299)       133.6  Rx     00002902  8  FF DE 00 00 00 00 23 00 
   300)       134.9  Rx         0003  8  77 A2 74 77 A2 74 00 00 
   301)       135.0  Rx     00002901  8  FC 62 00 00 FF FF 25 00 
   302)       135.2  Rx         0004  8  00 00 00 00 00 00 00 00 
   303)       135.3  Rx         0005  8  80 18 01 80 10 00 02 02 
   304)       135.4  Rx     00000801  8  00 00 00 7F FF 80 08 00 
   305)       135.5  Rx     00000802  8  00 00 00 7F FF 80 08 00 
   306)       135.7  Rx     00002902  8  FF DE 00 00 00 00 23 00 
   307)       137.0  Rx     00002901  8  FC 62 00 00 FF FE 25 00 
   308)       137.6  Rx     00002902  8  FF DE 00 00 00 01 23 00 
   309)       138.9  Rx         0003  8  77 A2 74 77 A2 74 00 00 
   310)       139.0  Rx     00002901  8  FC 62 00 00 FF FE 25 00 
   311)       139.2  Rx         0004  8  00 00 00 00 00 00 00 00 
   312)       139.3  Rx         0005  8  80 18 01 80 10 00 02 00 
   313)       139.4  Rx     00000801  8  00 00 00 7F FF 80 08 00 
   314)       139.6  Rx     00000802  8  00 00 00 7F FF 80 08 00 
   315)       139.7  Rx     00002902  8  FF DE 00 00 00 00 23 00 
   316)       141.0  Rx     00002901  8  FC 62 00 00 FF FF 25 00 
   317)       141.6  Rx     00002902  8  FF DE 00 00 00 00 23 00 
   318)       142.9  Rx         0003  8  77 A2 74 77 A2 74 00 00 
   319)       143.0  Rx     00002901  8  FC 62 00 00 00 01 25 00 
   320)       143.1  Rx         0004  8  00 00 00 00 00 00 00 00 
   321)       143.3  Rx         0005  8  80 18 01 80 10 00 02 00 
   322)       143.4  Rx     00000801  8  00 00 00 7F FF 80 08 00 
   323)       143.6  Rx     00000802  8  00 00 00 7F FF 80 08 00 
   324)       143.7  Rx     00002902  8  FF DE 00 00 00 01 23 00 
   325)       145.0  Rx     00002901  8  FC 62 00 00 00 00 25 00 
   326)       145.6  Rx     00002902  8  FF DE 00 00 00 02 23 00 
   327)       146.9  Rx         0003  8  77 A2 74 77 A2 74 00 00 
   328)       147.0  Rx     00002901  8  FC 62 00 00 FF FE 25 00 
   329)       147.1  Rx         0004  8  00 00 00 00 00 00 00 00 
   330)       147.3  Rx         0005  8  80 18 01 80 10 00 02 00 
   331)       147.4  Rx     00000801  8  00 00 00 7F FF 80 08 00 
   332)       147.6  Rx     00000802  8  00 00 00 7F FF 80 08 00 
   333)       147.7  Rx     00002902  8  FF DE 00 00 00 01 23 00 
   334)       148.9  Rx     00002901  8  FC 62 00 00 FF FF 25 00 
   335)       149.6  Rx     00002902  8  FF DE 00 00 00 00 23 00 
   336)       150.9  Rx         0003  8  77 A2 74 77 A2 74 00 00 
   337)       151.0  Rx     00002901  8  FC 62 00 00 00 01 25 00 
   338)       151.1  Rx         0004  8  00 00 00 00 00 00 00 00 
   339)       151.2  Rx         0005  8  80 18 01 80 10 00 02 00 
   340)       151.4  Rx     00000801  8  00 00 00 7F FF 80 08 00 
   341)       151.6  Rx     00000802  8  00 00 00 7F FF 80 08 00 
   342)       151.7  Rx     00002902  8  FF DE 00 00 00 01 23 00 
   343)       153.0  Rx     00002901  8  FC 62 00 00 FF FE 25 00 
   344)       153.6  Rx     00002902  8  FF DE 00 00 00 00 23 00 
   345)       154.9  Rx         0003  8  77 A2 74 77 A2 74 00 00 
   346)       155.0  Rx     00002901  8  FC 62 00 00 FF FE 25 00 
   347)       155.1  Rx         0004  8  00 00 00 00 00 00 00 00 
   348)       155.3  Rx         0005  8  80 18 01 80 10 00 02 00 
   349)       155.4  Rx     00000801  8  00 00 00 7F FF 80 08 00 
   350)       155.6  Rx     00000802  8  00 00 00 7F FF 80 08 00 
   351)       155.7  Rx     00002902  8  FF DE 00 00 00 03 23 00 
   352)       157.0  Rx     00002901  8  FC 62 00 00 00 00 25 00 
   353)       157.6  Rx     00002902  8  FF DE 00 00 00 01 23 00 
   354)       158.9  Rx         0003  8  77 A2 74 77 A2 74 00 00 
   355)       159.0  Rx     00002901  8  FC 62 00 00 00 00 25 00 
   356)       159.1  Rx         0004  8  00 00 00 00 00 00 00 00 
   357)       159.3  Rx         0005  8  80 18 01 80 10 00 02 00 
   358)       159.4  Rx     00000801  8  00 00 00 7F FF 80 08 00 
   359)       159.6  Rx     00000802  8  00 00 00 7F FF 80 08 00 
   360)       159.7  Rx     00002902  8  FF DE 00 00 00 02 23 00 
   361)       161.0  Rx     00002901  8  FC 62 00 00 FF FE 25 00 
   362)       161.6  Rx     00002902  8  FF DE 00 00 00 00 23 00 
   363)       162.9  Rx         0003  8  77 A2 74 77 A2 74 00 00 
   364)       163.0  Rx     00002901  8  FC 62 00 00 FF FF 25 00 
   365)       163.1  Rx         0004  8  00 00 00 00 00 00 00 00 
   366)       163.3  Rx         0005  8  80 18 01 80 10 00 02 02 
   367)       163.4  Rx     00000801  8  00 00 00 7F FF 80 08 00 
   368)       163.6  Rx     00000802  8  00 00 00 7F FF 80 08 00 
   369)       163.7  Rx     00002902  8  FF DE 00 00 00 01 23 00 
   370)       164.9  Rx     00002901  8  FC 62 00 00 FF FF 25 00 
   371)       165.6  Rx     00002902  8  FF DE 00 00 00 00 23 00 
