;$FILEVERSION=1.1
;$STARTTIME=45779.5231874306
;
;   Start time: 5/2/2025 12:33:23.394.0
;   Generated by PCAN-View v5.3.2.952
;
;   Message Number
;   |         Time Offset (ms)
;   |         |        Type
;   |         |        |        ID (hex)
;   |         |        |        |     Data Length
;   |         |        |        |     |   Data Bytes (hex) ...
;   |         |        |        |     |   |
;---+--   ----+----  --+--  ----+---  +  -+ -- -- -- -- -- -- --
     1)        21.6  Rx     00002901  8  FC 7D 00 00 FF FF 22 00 
     2)        21.7  Rx     00002902  8  FF D7 00 00 00 00 20 00 
     3)        21.9  Rx         0003  8  7B 12 69 7B 12 69 00 00 
     4)        22.0  Rx         0004  8  00 00 00 00 00 00 00 00 
     5)        22.1  Rx         0005  8  80 18 01 80 10 00 02 38 
     6)        22.3  Rx     00000801  8  00 00 00 7F FF 80 08 00 
     7)        22.4  Rx     00000802  8  00 00 00 7F FF 80 08 00 
     8)        23.6  Rx     00002901  8  FC 7D 00 00 00 00 22 00 
     9)        23.8  Rx     00002902  8  FF D7 00 00 00 00 20 00 
    10)        25.6  Rx     00002901  8  FC 7D 00 00 FF FF 22 00 
    11)        25.7  Rx     00002902  8  FF D7 00 00 00 00 20 00 
    12)        25.9  Rx         0003  8  7B 12 69 7B 12 69 00 00 
    13)        26.0  Rx         0004  8  00 00 00 00 00 00 00 00 
    14)        26.1  Rx         0005  8  80 18 01 80 10 00 02 38 
    15)        26.3  Rx     00000801  8  00 00 00 7F FF 80 08 00 
    16)        26.4  Rx     00000802  8  00 00 00 7F FF 80 08 00 
    17)        27.6  Rx     00002901  8  FC 7D 00 00 FF FF 22 00 
    18)        27.8  Rx     00002902  8  FF D7 00 00 FF FC 20 00 
    19)        29.6  Rx     00002901  8  FC 7D 00 00 FF FF 22 00 
    20)        29.8  Rx     00002902  8  FF D7 00 00 FF FC 20 00 
    21)        29.9  Rx         0003  8  7B 12 69 7B 12 69 00 00 
    22)        30.0  Rx         0004  8  00 00 00 00 00 00 00 00 
    23)        30.1  Rx         0005  8  80 18 01 80 10 00 02 37 
    24)        30.3  Rx     00000801  8  00 00 00 7F FF 80 08 00 
    25)        30.4  Rx     00000802  8  00 00 00 7F FF 80 08 00 
    26)        31.6  Rx     00002901  8  FC 7D 00 00 FF FE 22 00 
    27)        31.8  Rx     00002902  8  FF D7 00 00 00 02 20 00 
    28)        33.6  Rx     00002901  8  FC 7D 00 00 FF FE 22 00 
    29)        33.8  Rx     00002902  8  FF D7 00 00 FF FF 20 00 
    30)        33.9  Rx         0003  8  7B 12 69 7B 12 69 00 00 
    31)        34.0  Rx         0004  8  00 00 00 00 00 00 00 00 
    32)        34.2  Rx         0005  8  80 18 01 80 10 00 02 35 
    33)        34.3  Rx     00000801  8  00 00 00 7F FF 80 08 00 
    34)        34.4  Rx     00000802  8  00 00 00 7F FF 80 08 00 
    35)        35.6  Rx     00002901  8  FC 7D 00 00 FF FF 22 00 
    36)        35.8  Rx     00002902  8  FF D7 00 00 FF FF 20 00 
    37)        37.6  Rx     00002901  8  FC 7D 00 00 FF FF 22 00 
    38)        37.8  Rx     00002902  8  FF D7 00 00 00 01 20 00 
    39)        37.9  Rx         0003  8  7B 12 69 7B 12 69 00 00 
    40)        38.0  Rx         0004  8  00 00 00 00 00 00 00 00 
    41)        38.1  Rx         0005  8  80 18 01 80 10 00 02 38 
    42)        38.3  Rx     00000801  8  00 00 00 7F FF 80 08 00 
    43)        38.4  Rx     00000802  8  00 00 00 7F FF 80 08 00 
    44)        39.6  Rx     00002901  8  FC 7D 00 00 FF FE 22 00 
    45)        39.7  Rx     00002902  8  FF D7 00 00 00 00 20 00 
    46)        41.6  Rx     00002901  8  FC 7D 00 00 FF FF 22 00 
    47)        41.8  Rx     00002902  8  FF D7 00 00 00 00 20 00 
    48)        41.9  Rx         0003  8  7B 12 69 7B 12 69 00 00 
    49)        42.0  Rx         0004  8  00 00 00 00 00 00 00 00 
    50)        42.1  Rx         0005  8  80 18 01 80 10 00 02 36 
    51)        42.3  Rx     00000801  8  00 00 00 7F FF 80 08 00 
    52)        42.4  Rx     00000802  8  00 00 00 7F FF 80 08 00 
    53)        43.6  Rx     00002901  8  FC 7D 00 00 FF FF 22 00 
    54)        43.7  Rx     00002902  8  FF D7 00 00 00 00 20 00 
    55)        45.6  Rx     00002901  8  FC 7D 00 00 FF FF 22 00 
    56)        45.8  Rx     00002902  8  FF D7 00 00 00 00 20 00 
    57)        45.9  Rx         0003  8  7B 12 69 7B 12 69 00 00 
    58)        46.0  Rx         0004  8  00 00 00 00 00 00 00 00 
    59)        46.1  Rx         0005  8  80 18 01 80 10 00 02 38 
    60)        46.3  Rx     00000801  8  00 00 00 7F FF 80 08 00 
    61)        46.4  Rx     00000802  8  00 00 00 7F FF 80 08 00 
    62)        47.6  Rx     00002901  8  FC 7D 00 00 00 00 22 00 
    63)        47.8  Rx     00002902  8  FF D7 00 00 FF FE 20 00 
    64)        49.6  Rx     00002901  8  FC 7D 00 00 00 00 22 00 
    65)        49.8  Rx     00002902  8  FF D7 00 00 00 00 20 00 
    66)        49.9  Rx         0003  8  7B 12 69 7B 12 69 00 00 
    67)        50.0  Rx         0004  8  00 00 00 00 00 00 00 00 
    68)        50.1  Rx         0005  8  80 18 01 80 10 00 02 37 
    69)        50.3  Rx     00000801  8  00 00 00 7F FF 80 08 00 
    70)        50.4  Rx     00000802  8  00 00 00 7F FF 80 08 00 
    71)        51.6  Rx     00002901  8  FC 7D 00 00 FF FF 22 00 
    72)        51.8  Rx     00002902  8  FF D7 00 00 00 03 20 00 
    73)        53.6  Rx     00002901  8  FC 7D 00 00 FF FF 22 00 
    74)        53.7  Rx     00002902  8  FF D7 00 00 00 00 20 00 
    75)        53.9  Rx         0003  8  7B 12 69 7B 12 69 00 00 
    76)        54.0  Rx         0004  8  00 00 00 00 00 00 00 00 
    77)        54.1  Rx         0005  8  80 18 01 80 10 00 02 38 
    78)        54.3  Rx     00000801  8  00 00 00 7F FF 80 08 00 
    79)        54.4  Rx     00000802  8  00 00 00 7F FF 80 08 00 
    80)        55.6  Rx     00002901  8  FC 7D 00 00 00 00 22 00 
    81)        55.8  Rx     00002902  8  FF D7 00 00 00 00 20 00 
    82)        57.6  Rx     00002901  8  FC 7D 00 00 FF FF 22 00 
    83)        57.7  Rx     00002902  8  FF D7 00 00 00 00 20 00 
    84)        57.9  Rx         0003  8  7B 12 69 7B 12 69 00 00 
    85)        58.0  Rx         0004  8  00 00 00 00 00 00 00 00 
    86)        58.1  Rx         0005  8  80 18 01 80 10 00 02 36 
    87)        58.3  Rx     00000801  8  00 00 00 7F FF 80 08 00 
    88)        58.4  Rx     00000802  8  00 00 00 7F FF 80 08 00 
    89)        59.6  Rx     00002901  8  FC 7D 00 00 FF FF 22 00 
    90)        59.7  Rx     00002902  8  FF D7 00 00 00 02 20 00 
    91)        61.6  Rx     00002901  8  FC 7D 00 00 FF FF 22 00 
    92)        61.8  Rx     00002902  8  FF D7 00 00 FF FF 20 00 
    93)        61.9  Rx         0003  8  7B 12 69 7B 12 69 00 00 
    94)        62.0  Rx         0004  8  00 00 00 00 00 00 00 00 
    95)        62.1  Rx         0005  8  80 18 01 80 10 00 02 37 
    96)        62.3  Rx     00000801  8  00 00 00 7F FF 80 08 00 
    97)        62.4  Rx     00000802  8  00 00 00 7F FF 80 08 00 
    98)        63.6  Rx     00002901  8  FC 7D 00 00 FF FF 22 00 
    99)        63.8  Rx     00002902  8  FF D7 00 00 00 00 20 00 
   100)        65.6  Rx     00002901  8  FC 7D 00 00 FF FF 22 00 
   101)        65.8  Rx     00002902  8  FF D7 00 00 FF FE 20 00 
   102)        65.9  Rx         0003  8  7B 12 69 7B 12 69 00 00 
   103)        66.0  Rx         0004  8  00 00 00 00 00 00 00 00 
   104)        66.1  Rx         0005  8  80 18 01 80 10 00 02 38 
   105)        66.3  Rx     00000801  8  00 00 00 7F FF 80 08 00 
   106)        66.4  Rx     00000802  8  00 00 00 7F FF 80 08 00 
   107)        67.6  Rx     00002901  8  FC 7D 00 00 FF FF 22 00 
   108)        67.8  Rx     00002902  8  FF D7 00 00 00 01 20 00 
   109)        69.6  Rx     00002901  8  FC 7D 00 00 FF FE 22 00 
   110)        69.8  Rx     00002902  8  FF D7 00 00 00 00 20 00 
   111)        69.9  Rx         0003  8  7B 12 69 7B 12 69 00 00 
   112)        70.0  Rx         0004  8  00 00 00 00 00 00 00 00 
   113)        70.1  Rx         0005  8  80 18 01 80 10 00 02 37 
   114)        70.3  Rx     00000801  8  00 00 00 7F FF 80 08 00 
   115)        70.4  Rx     00000802  8  00 00 00 7F FF 80 08 00 
   116)        71.6  Rx     00002901  8  FC 7D 00 00 FF FF 22 00 
   117)        71.7  Rx     00002902  8  FF D7 00 00 00 00 20 00 
   118)        73.6  Rx     00002901  8  FC 7D 00 00 FF FE 22 00 
   119)        73.7  Rx     00002902  8  FF D7 00 00 FF FE 20 00 
   120)        73.9  Rx         0003  8  7B 12 69 7B 12 69 00 00 
   121)        74.0  Rx         0004  8  00 00 00 00 00 00 00 00 
   122)        74.1  Rx         0005  8  80 18 01 80 10 00 02 36 
   123)        74.3  Rx     00000801  8  00 00 00 7F FF 80 08 00 
   124)        74.4  Rx     00000802  8  00 00 00 7F FF 80 08 00 
   125)        75.6  Rx     00002901  8  FC 7D 00 00 FF FF 22 00 
   126)        75.7  Rx     00002902  8  FF D7 00 00 00 00 20 00 
   127)        77.6  Rx     00002901  8  FC 7D 00 00 FF FE 22 00 
   128)        77.8  Rx     00002902  8  FF D7 00 00 FF FF 20 00 
   129)        77.9  Rx         0003  8  7B 12 69 7B 12 69 00 00 
   130)        78.0  Rx         0004  8  00 00 00 00 00 00 00 00 
   131)        78.1  Rx         0005  8  80 18 01 80 10 00 02 37 
   132)        78.3  Rx     00000801  8  00 00 00 7F FF 80 08 00 
   133)        78.4  Rx     00000802  8  00 00 00 7F FF 80 08 00 
   134)        79.6  Rx     00002901  8  FC 7D 00 00 FF FF 22 00 
   135)        79.8  Rx     00002902  8  FF D7 00 00 00 00 20 00 
   136)        81.6  Rx     00002901  8  FC 7D 00 00 FF FF 22 00 
   137)        81.8  Rx     00002902  8  FF D7 00 00 00 01 20 00 
   138)        81.9  Rx         0003  8  7B 12 69 7B 12 69 00 00 
   139)        82.0  Rx         0004  8  00 00 00 00 00 00 00 00 
   140)        82.1  Rx         0005  8  80 18 01 80 10 00 02 36 
   141)        82.3  Rx     00000801  8  00 00 00 7F FF 80 08 00 
   142)        82.4  Rx     00000802  8  00 00 00 7F FF 80 08 00 
   143)        83.6  Rx     00002901  8  FC 7D 00 00 FF FF 22 00 
   144)        83.8  Rx     00002902  8  FF D7 00 00 00 00 20 00 
   145)        85.6  Rx     00002901  8  FC 7D 00 00 FF FF 22 00 
   146)        85.8  Rx     00002902  8  FF D7 00 00 FF FF 20 00 
   147)        85.9  Rx         0003  8  7B 12 69 7B 12 69 00 00 
   148)        86.0  Rx         0004  8  00 00 00 00 00 00 00 00 
   149)        86.1  Rx         0005  8  80 18 01 80 10 00 02 36 
   150)        86.3  Rx     00000801  8  00 00 00 7F FF 80 08 00 
   151)        86.4  Rx     00000802  8  00 00 00 7F FF 80 08 00 
   152)        87.6  Rx     00002901  8  FC 7D 00 00 FF FE 22 00 
   153)        87.7  Rx     00002902  8  FF D7 00 00 FF FC 20 00 
   154)        89.6  Rx     00002901  8  FC 7D 00 00 FF FE 22 00 
   155)        89.7  Rx     00002902  8  FF D7 00 00 00 02 20 00 
   156)        89.9  Rx         0003  8  7B 12 69 7B 12 69 00 00 
   157)        90.0  Rx         0004  8  00 00 00 00 00 00 00 00 
   158)        90.1  Rx         0005  8  80 18 01 80 10 00 02 38 
   159)        90.3  Rx     00000801  8  00 00 00 7F FF 80 08 00 
   160)        90.4  Rx     00000802  8  00 00 00 7F FF 80 08 00 
   161)        91.6  Rx     00002901  8  FC 7D 00 00 FF FF 22 00 
   162)        91.7  Rx     00002902  8  FF D7 00 00 00 00 20 00 
   163)        93.6  Rx     00002901  8  FC 7D 00 00 FF FF 22 00 
   164)        93.8  Rx     00002902  8  FF D7 00 00 00 01 20 00 
   165)        93.9  Rx         0003  8  7B 12 69 7B 12 69 00 00 
   166)        94.0  Rx         0004  8  00 00 00 00 00 00 00 00 
   167)        94.1  Rx         0005  8  80 18 01 80 10 00 02 34 
   168)        94.3  Rx     00000801  8  00 00 00 7F FF 80 08 00 
   169)        94.4  Rx     00000802  8  00 00 00 7F FF 80 08 00 
   170)        95.6  Rx     00002901  8  FC 7D 00 00 FF FF 22 00 
   171)        95.8  Rx     00002902  8  FF D7 00 00 00 01 20 00 
   172)        97.6  Rx     00002901  8  FC 7D 00 00 FF FF 22 00 
   173)        97.8  Rx     00002902  8  FF D7 00 00 00 00 20 00 
   174)        97.9  Rx         0003  8  7B 12 69 7B 12 69 00 00 
   175)        98.0  Rx         0004  8  00 00 00 00 00 00 00 00 
   176)        98.1  Rx         0005  8  80 18 01 80 10 00 02 35 
   177)        98.3  Rx     00000801  8  00 00 00 7F FF 80 08 00 
   178)        98.4  Rx     00000802  8  00 00 00 7F FF 80 08 00 
   179)        99.6  Rx     00002901  8  FC 7D 00 00 FF FF 22 00 
   180)        99.8  Rx     00002902  8  FF D7 00 00 FF FF 20 00 
   181)       101.6  Rx     00002901  8  FC 7D 00 00 FF FF 22 00 
   182)       101.8  Rx     00002902  8  FF D7 00 00 00 00 20 00 
   183)       101.9  Rx         0003  8  7B 12 69 7B 12 69 00 00 
   184)       102.0  Rx         0004  8  00 00 00 00 00 00 00 00 
   185)       102.1  Rx         0005  8  80 18 01 80 10 00 02 36 
   186)       102.3  Rx     00000801  8  00 00 00 7F FF 80 08 00 
   187)       102.4  Rx     00000802  8  00 00 00 7F FF 80 08 00 
   188)       103.6  Rx     00002901  8  FC 7D 00 00 FF FF 22 00 
   189)       103.7  Rx     00002902  8  FF D7 00 00 00 00 20 00 
   190)       105.6  Rx     00002901  8  FC 7D 00 00 FF FF 22 00 
   191)       105.7  Rx     00002902  8  FF D7 00 00 00 00 20 00 
   192)       105.9  Rx         0003  8  7B 12 69 7B 12 69 00 00 
   193)       106.0  Rx         0004  8  00 00 00 00 00 00 00 00 
   194)       106.1  Rx         0005  8  80 18 01 80 10 00 02 36 
   195)       106.3  Rx     00000801  8  00 00 00 7F FF 80 08 00 
   196)       106.4  Rx     00000802  8  00 00 00 7F FF 80 08 00 
   197)       107.6  Rx     00002901  8  FC 7D 00 00 FF FE 22 00 
   198)       107.7  Rx     00002902  8  FF D7 00 00 00 01 20 00 
   199)       109.6  Rx     00002901  8  FC 7D 00 00 FF FF 22 00 
   200)       109.8  Rx     00002902  8  FF D7 00 00 00 00 20 00 
   201)       109.9  Rx         0003  8  7B 12 69 7B 12 69 00 00 
   202)       110.0  Rx         0004  8  00 00 00 00 00 00 00 00 
   203)       110.1  Rx         0005  8  80 18 01 80 10 00 02 36 
   204)       110.3  Rx     00000801  8  00 00 00 7F FF 80 08 00 
   205)       110.4  Rx     00000802  8  00 00 00 7F FF 80 08 00 
   206)       111.6  Rx     00002901  8  FC 7D 00 00 FF FE 22 00 
   207)       111.8  Rx     00002902  8  FF D7 00 00 00 00 20 00 
   208)       113.6  Rx     00002901  8  FC 7D 00 00 FF FF 22 00 
   209)       113.8  Rx     00002902  8  FF D7 00 00 00 04 20 00 
   210)       113.9  Rx         0003  8  7B 12 69 7B 12 69 00 00 
   211)       114.0  Rx         0004  8  00 00 00 00 00 00 00 00 
   212)       114.1  Rx         0005  8  80 18 01 80 10 00 02 37 
   213)       114.3  Rx     00000801  8  00 00 00 7F FF 80 08 00 
   214)       114.4  Rx     00000802  8  00 00 00 7F FF 80 08 00 
   215)       115.6  Rx     00002901  8  FC 7D 00 00 FF FF 22 00 
   216)       115.8  Rx     00002902  8  FF D7 00 00 FF FD 20 00 
   217)       117.6  Rx     00002901  8  FC 7D 00 00 FF FF 22 00 
   218)       117.7  Rx     00002902  8  FF D7 00 00 00 01 20 00 
   219)       117.9  Rx         0003  8  7B 12 69 7B 12 69 00 00 
   220)       118.0  Rx         0004  8  00 00 00 00 00 00 00 00 
   221)       118.1  Rx         0005  8  80 18 01 80 10 00 02 34 
   222)       118.2  Rx     00000801  8  00 00 00 7F FF 80 08 00 
   223)       118.4  Rx     00000802  8  00 00 00 7F FF 80 08 00 
   224)       119.6  Rx     00002901  8  FC 7D 00 00 FF FF 22 00 
   225)       119.8  Rx     00002902  8  FF D7 00 00 00 01 20 00 
   226)       121.6  Rx     00002901  8  FC 7D 00 00 FF FF 22 00 
   227)       121.7  Rx     00002902  8  FF D7 00 00 FF FE 20 00 
   228)       121.9  Rx         0003  8  7B 12 69 7B 12 69 00 00 
   229)       122.0  Rx         0004  8  00 00 00 00 00 00 00 00 
   230)       122.1  Rx         0005  8  80 18 01 80 10 00 02 34 
   231)       122.3  Rx     00000801  8  00 00 00 7F FF 80 08 00 
   232)       122.4  Rx     00000802  8  00 00 00 7F FF 80 08 00 
   233)       123.6  Rx     00002901  8  FC 7D 00 00 FF FF 22 00 
   234)       123.7  Rx     00002902  8  FF D7 00 00 00 00 20 00 
   235)       125.6  Rx     00002901  8  FC 7D 00 00 FF FF 22 00 
   236)       125.8  Rx     00002902  8  FF D7 00 00 00 02 20 00 
   237)       125.9  Rx         0003  8  7B 12 69 7B 12 69 00 00 
   238)       126.0  Rx         0004  8  00 00 00 00 00 00 00 00 
   239)       126.1  Rx         0005  8  80 18 01 80 10 00 02 35 
   240)       126.3  Rx     00000801  8  00 00 00 7F FF 80 08 00 
   241)       126.4  Rx     00000802  8  00 00 00 7F FF 80 08 00 
   242)       127.6  Rx     00002901  8  FC 7D 00 00 FF FF 22 00 
   243)       127.8  Rx     00002902  8  FF D7 00 00 FF FF 20 00 
   244)       129.6  Rx     00002901  8  FC 7D 00 00 FF FF 22 00 
   245)       129.8  Rx     00002902  8  FF D7 00 00 00 00 20 00 
   246)       129.9  Rx         0003  8  7B 12 69 7B 12 69 00 00 
   247)       130.0  Rx         0004  8  00 00 00 00 00 00 00 00 
   248)       130.1  Rx         0005  8  80 18 01 80 10 00 02 36 
   249)       130.3  Rx     00000801  8  00 00 00 7F FF 80 08 00 
   250)       130.4  Rx     00000802  8  00 00 00 7F FF 80 08 00 
   251)       131.6  Rx     00002901  8  FC 7D 00 00 FF FE 22 00 
   252)       131.8  Rx     00002902  8  FF D7 00 00 FF FF 20 00 
   253)       133.6  Rx     00002901  8  FC 7D 00 00 FF FF 22 00 
   254)       133.8  Rx     00002902  8  FF D7 00 00 FF FE 20 00 
   255)       133.9  Rx         0003  8  7B 12 69 7B 12 69 00 00 
   256)       134.0  Rx         0004  8  00 00 00 00 00 00 00 00 
   257)       134.1  Rx         0005  8  80 18 01 80 10 00 02 37 
   258)       134.3  Rx     00000801  8  00 00 00 7F FF 80 08 00 
   259)       134.4  Rx     00000802  8  00 00 00 7F FF 80 08 00 
   260)       135.6  Rx     00002901  8  FC 7D 00 00 FF FF 22 00 
   261)       135.7  Rx     00002902  8  FF D7 00 00 FF FF 20 00 
   262)       137.6  Rx     00002901  8  FC 7D 00 00 FF FF 22 00 
   263)       137.8  Rx     00002902  8  FF D7 00 00 00 00 20 00 
   264)       137.9  Rx         0003  8  7B 12 69 7B 12 69 00 00 
   265)       138.0  Rx         0004  8  00 00 00 00 00 00 00 00 
   266)       138.1  Rx         0005  8  80 18 01 80 10 00 02 36 
   267)       138.3  Rx     00000801  8  00 00 00 7F FF 80 08 00 
   268)       138.4  Rx     00000802  8  00 00 00 7F FF 80 08 00 
   269)       139.6  Rx     00002901  8  FC 7D 00 00 FF FE 22 00 
   270)       139.7  Rx     00002902  8  FF D7 00 00 00 00 20 00 
   271)       141.6  Rx     00002901  8  FC 7D 00 00 00 00 22 00 
   272)       141.8  Rx     00002902  8  FF D7 00 00 FF FE 20 00 
   273)       141.9  Rx         0003  8  7B 12 69 7B 12 69 00 00 
   274)       142.0  Rx         0004  8  00 00 00 00 00 00 00 00 
   275)       142.1  Rx         0005  8  80 18 01 80 10 00 02 37 
   276)       142.3  Rx     00000801  8  00 00 00 7F FF 80 08 00 
   277)       142.4  Rx     00000802  8  00 00 00 7F FF 80 08 00 
   278)       143.6  Rx     00002901  8  FC 7D 00 00 FF FE 22 00 
   279)       143.8  Rx     00002902  8  FF D7 00 00 FF FF 20 00 
   280)       145.6  Rx     00002901  8  FC 7D 00 00 FF FE 22 00 
   281)       145.8  Rx     00002902  8  FF D7 00 00 FF FB 20 00 
   282)       145.8  Rx         0003  8  7B 12 69 7B 12 69 00 00 
   283)       146.0  Rx         0004  8  00 00 00 00 00 00 00 00 
   284)       146.1  Rx         0005  8  80 18 01 80 10 00 02 34 
   285)       146.3  Rx     00000801  8  00 00 00 7F FF 80 08 00 
   286)       146.4  Rx     00000802  8  00 00 00 7F FF 80 08 00 
   287)       147.6  Rx     00002901  8  FC 7D 00 00 FF FE 22 00 
   288)       147.8  Rx     00002902  8  FF D7 00 00 FF FF 20 00 
   289)       149.6  Rx     00002901  8  FC 7D 00 00 FF FF 22 00 
   290)       149.7  Rx     00002902  8  FF D7 00 00 FF FF 20 00 
   291)       149.9  Rx         0003  8  7B 12 69 7B 12 69 00 00 
   292)       150.0  Rx         0004  8  00 00 00 00 00 00 00 00 
   293)       150.1  Rx         0005  8  80 18 01 80 10 00 02 31 
   294)       150.3  Rx     00000801  8  00 00 00 7F FF 80 08 00 
   295)       150.4  Rx     00000802  8  00 00 00 7F FF 80 08 00 
   296)       151.6  Rx     00002901  8  FC 7D 00 00 FF FF 22 00 
   297)       151.8  Rx     00002902  8  FF D7 00 00 00 02 20 00 
   298)       153.6  Rx     00002901  8  FC 7D 00 00 00 00 22 00 
   299)       153.7  Rx     00002902  8  FF D7 00 00 00 00 20 00 
   300)       153.9  Rx         0003  8  7B 12 69 7B 12 69 00 00 
   301)       154.0  Rx         0004  8  00 00 00 00 00 00 00 00 
   302)       154.1  Rx         0005  8  80 18 01 80 10 00 02 36 
   303)       154.3  Rx     00000801  8  00 00 00 7F FF 80 08 00 
   304)       154.4  Rx     00000802  8  00 00 00 7F FF 80 08 00 
   305)       155.6  Rx     00002901  8  FC 7D 00 00 FF FF 22 00 
   306)       155.7  Rx     00002902  8  FF D7 00 00 00 02 20 00 
   307)       157.6  Rx     00002901  8  FC 7D 00 00 FF FF 22 00 
   308)       157.8  Rx     00002902  8  FF D7 00 00 00 01 20 00 
   309)       157.9  Rx         0003  8  7B 12 69 7B 12 69 00 00 
   310)       158.0  Rx         0004  8  00 00 00 00 00 00 00 00 
   311)       158.1  Rx         0005  8  80 18 01 80 10 00 02 36 
   312)       158.3  Rx     00000801  8  00 00 00 7F FF 80 08 00 
   313)       158.4  Rx     00000802  8  00 00 00 7F FF 80 08 00 
   314)       159.6  Rx     00002901  8  FC 7D 00 00 00 00 22 00 
   315)       159.8  Rx     00002902  8  FF D7 00 00 00 00 20 00 
   316)       161.6  Rx     00002901  8  FC 7D 00 00 00 00 22 00 
   317)       161.8  Rx     00002902  8  FF D7 00 00 00 00 20 00 
   318)       161.9  Rx         0003  8  7B 12 69 7B 12 69 00 00 
   319)       162.0  Rx         0004  8  00 00 00 00 00 00 00 00 
   320)       162.1  Rx         0005  8  80 18 01 80 10 00 02 35 
   321)       162.3  Rx     00000801  8  00 00 00 7F FF 80 08 00 
   322)       162.4  Rx     00000802  8  00 00 00 7F FF 80 08 00 
   323)       163.6  Rx     00002901  8  FC 7D 00 00 FF FF 22 00 
   324)       163.8  Rx     00002902  8  FF D7 00 00 00 02 20 00 
   325)       165.6  Rx     00002901  8  FC 7D 00 00 FF FE 22 00 
   326)       165.8  Rx     00002902  8  FF D7 00 00 00 00 20 00 
   327)       165.9  Rx         0003  8  7B 12 69 7B 12 69 00 00 
   328)       166.0  Rx         0004  8  00 00 00 00 00 00 00 00 
   329)       166.1  Rx         0005  8  80 18 01 80 10 00 02 35 
   330)       166.3  Rx     00000801  8  00 00 00 7F FF 80 08 00 
   331)       166.4  Rx     00000802  8  00 00 00 7F FF 80 08 00 
   332)       167.6  Rx     00002901  8  FC 7D 00 00 FF FF 22 00 
   333)       167.7  Rx     00002902  8  FF D7 00 00 FF FF 20 00 
   334)       169.6  Rx     00002901  8  FC 7D 00 00 FF FF 22 00 
   335)       169.7  Rx     00002902  8  FF D7 00 00 00 00 20 00 
   336)       169.9  Rx         0003  8  7B 12 69 7B 12 69 00 00 
   337)       170.0  Rx         0004  8  00 00 00 00 00 00 00 00 
   338)       170.1  Rx         0005  8  80 18 01 80 10 00 02 35 
   339)       170.3  Rx     00000801  8  00 00 00 7F FF 80 08 00 
   340)       170.4  Rx     00000802  8  00 00 00 7F FF 80 08 00 
   341)       171.6  Rx     00002901  8  FC 7D 00 00 FF FF 22 00 
   342)       171.7  Rx     00002902  8  FF D7 00 00 00 00 20 00 
   343)       173.6  Rx     00002901  8  FC 7D 00 00 FF FE 22 00 
   344)       173.8  Rx     00002902  8  FF D7 00 00 FF FF 20 00 
   345)       173.9  Rx         0003  8  7B 12 69 7B 12 69 00 00 
   346)       174.0  Rx         0004  8  00 00 00 00 00 00 00 00 
   347)       174.1  Rx         0005  8  80 18 01 80 10 00 02 37 
   348)       174.3  Rx     00000801  8  00 00 00 7F FF 80 08 00 
   349)       174.4  Rx     00000802  8  00 00 00 7F FF 80 08 00 
   350)       175.6  Rx     00002901  8  FC 7D 00 00 FF FF 22 00 
   351)       175.8  Rx     00002902  8  FF D7 00 00 00 00 20 00 
   352)       177.6  Rx     00002901  8  FC 7D 00 00 FF FF 22 00 
   353)       177.8  Rx     00002902  8  FF D7 00 00 00 00 20 00 
   354)       177.9  Rx         0003  8  7B 12 69 7B 12 69 00 00 
   355)       178.0  Rx         0004  8  00 00 00 00 00 00 00 00 
   356)       178.1  Rx         0005  8  80 18 01 80 10 00 02 34 
   357)       178.3  Rx     00000801  8  00 00 00 7F FF 80 08 00 
   358)       178.4  Rx     00000802  8  00 00 00 7F FF 80 08 00 
   359)       179.6  Rx     00002901  8  FC 7D 00 00 FF FE 22 00 
   360)       179.8  Rx     00002902  8  FF D7 00 00 00 03 20 00 
   361)       181.6  Rx     00002901  8  FC 7D 00 00 00 00 22 00 
   362)       181.8  Rx     00002902  8  FF D7 00 00 00 00 20 00 
   363)       181.9  Rx         0003  8  7B 12 69 7B 12 69 00 00 
   364)       182.0  Rx         0004  8  00 00 00 00 00 00 00 00 
   365)       182.1  Rx         0005  8  80 18 01 80 10 00 02 35 
   366)       182.3  Rx     00000801  8  00 00 00 7F FF 80 08 00 
   367)       182.4  Rx     00000802  8  00 00 00 7F FF 80 08 00 
   368)       183.6  Rx     00002901  8  FC 7D 00 00 FF FE 22 00 
   369)       183.8  Rx     00002902  8  FF D7 00 00 00 00 20 00 
   370)       185.6  Rx     00002901  8  FC 7D 00 00 FF FF 22 00 
   371)       185.7  Rx     00002902  8  FF D7 00 00 FF FE 20 00 
