;$FILEVERSION=1.1
;$STARTTIME=45802.896108287
;
;   Start time: 5/25/2025 21:30:23.756.0
;   Generated by PCAN-View v5.3.2.952
;
;   Message Number
;   |         Time Offset (ms)
;   |         |        Type
;   |         |        |        ID (hex)
;   |         |        |        |     Data Length
;   |         |        |        |     |   Data Bytes (hex) ...
;   |         |        |        |     |   |
;---+--   ----+----  --+--  ----+---  +  -+ -- -- -- -- -- -- --
     1)         0.3  Rx         0003  8  F9 E3 FF 9B 00 00 00 00 
     2)         0.4  Rx         0005  8  00 00 00 00 00 00 00 00 
     3)         0.5  Rx     00000801  8  00 00 00 7F FF 80 08 00 
     4)         0.7  Rx     00000802  8  00 00 00 7F FF 80 08 00 
     5)         1.3  Rx     00002901  8  FC 7F 00 00 FF F7 1E 00 
     6)         1.4  Rx     00002902  8  FF C6 00 00 00 00 1E 00 
     7)         2.2  Rx         0003  8  F9 E3 FF 9B 00 00 00 00 
     8)         2.4  Rx         0005  8  00 00 00 00 00 00 00 00 
     9)         2.5  Rx     00000801  8  00 00 00 7F FF 80 08 00 
    10)         2.7  Rx     00000802  8  00 00 00 7F FF 80 08 00 
    11)         3.2  Rx     00002901  8  FC 7F 00 00 FF F6 1E 00 
    12)         3.4  Rx     00002902  8  FF C6 00 00 FF FB 1E 00 
    13)         4.2  Rx         0003  8  F9 E3 FF 9B 00 00 00 00 
    14)         4.4  Rx         0005  8  00 00 00 00 00 00 00 00 
    15)         4.5  Rx     00000801  8  00 00 00 7F FF 80 08 00 
    16)         4.7  Rx     00000802  8  00 00 00 7F FF 80 08 00 
    17)         5.3  Rx     00002901  8  FC 7F 00 00 FF F6 1E 00 
    18)         5.4  Rx     00002902  8  FF C6 00 00 FF FD 1E 00 
    19)         6.2  Rx         0003  8  F9 E3 FF 9B 00 00 00 00 
    20)         6.4  Rx         0005  8  00 00 00 00 00 00 00 00 
    21)         6.5  Rx     00000801  8  00 00 00 7F FF 80 08 00 
    22)         6.7  Rx     00000802  8  00 00 00 7F FF 80 08 00 
    23)         7.2  Rx     00002901  8  FC 7F 00 00 FF F9 1E 00 
    24)         7.4  Rx     00002902  8  FF C6 00 00 FF FA 1E 00 
    25)         8.2  Rx         0003  8  F9 E3 FF 9B 00 00 00 00 
    26)         8.4  Rx         0005  8  00 00 00 00 00 00 00 00 
    27)         8.5  Rx     00000801  8  00 00 00 7F FF 80 08 00 
    28)         8.7  Rx     00000802  8  00 00 00 7F FF 80 08 00 
    29)         9.2  Rx     00002901  8  FC 7F 00 00 FF F6 1E 00 
    30)         9.4  Rx     00002902  8  FF C6 00 00 FF FA 1E 00 
    31)        10.3  Rx         0003  8  F9 E3 FF 9B 00 00 00 00 
    32)        10.4  Rx         0005  8  00 00 00 00 00 00 00 00 
    33)        10.5  Rx     00000801  8  00 00 00 7F FF 80 08 00 
    34)        10.7  Rx     00000802  8  00 00 00 7F FF 80 08 00 
    35)        11.2  Rx     00002901  8  FC 7F 00 00 FF F6 1E 00 
    36)        11.4  Rx     00002902  8  FF C6 00 00 FF FC 1E 00 
    37)        12.3  Rx         0003  8  F9 E3 FF 9B 00 00 00 00 
    38)        12.4  Rx         0005  8  00 00 00 00 00 00 00 00 
    39)        12.6  Rx     00000801  8  00 00 00 7F FF 80 08 00 
    40)        12.7  Rx     00000802  8  00 00 00 7F FF 80 08 00 
    41)        13.2  Rx     00002901  8  FC 7F 00 00 FF F7 1E 00 
    42)        13.4  Rx     00002902  8  FF C6 00 00 FF FB 1E 00 
    43)        14.3  Rx         0003  8  F9 E3 FF 9B 00 00 00 00 
    44)        14.4  Rx         0005  8  00 00 00 00 00 00 00 00 
    45)        14.5  Rx     00000801  8  00 00 00 7F FF 80 08 00 
    46)        14.7  Rx     00000802  8  00 00 00 7F FF 80 08 00 
    47)        15.2  Rx     00002901  8  FC 7F 00 00 FF F6 1E 00 
    48)        15.4  Rx     00002902  8  FF C6 00 00 FF FA 1E 00 
    49)        16.2  Rx         0003  8  F9 E3 FF 9B 00 00 00 00 
    50)        16.4  Rx         0005  8  00 00 00 00 00 00 00 00 
    51)        16.5  Rx     00000801  8  00 00 00 7F FF 80 08 00 
    52)        16.7  Rx     00000802  8  00 00 00 7F FF 80 08 00 
    53)        17.3  Rx     00002901  8  FC 7F 00 00 FF F8 1E 00 
    54)        17.4  Rx     00002902  8  FF C6 00 00 FF FD 1E 00 
    55)        18.3  Rx         0003  8  F9 E3 FF 9B 00 00 00 00 
    56)        18.4  Rx         0005  8  00 00 00 00 00 00 00 00 
    57)        18.5  Rx     00000801  8  00 00 00 7F FF 80 08 00 
    58)        18.7  Rx     00000802  8  00 00 00 7F FF 80 08 00 
    59)        19.3  Rx     00002901  8  FC 7F 00 00 FF F8 1E 00 
    60)        19.4  Rx     00002902  8  FF C6 00 00 FF F9 1E 00 
    61)        20.2  Rx         0003  8  F9 E3 FF 9B 00 00 00 00 
    62)        20.4  Rx         0005  8  00 00 00 00 00 00 00 00 
    63)        20.5  Rx     00000801  8  00 00 00 7F FF 80 08 00 
    64)        20.7  Rx     00000802  8  00 00 00 7F FF 80 08 00 
    65)        21.2  Rx     00002901  8  FC 7F 00 00 FF F2 1E 00 
    66)        21.4  Rx     00002902  8  FF C6 00 00 FF FA 1E 00 
    67)        22.2  Rx         0003  8  F9 E3 FF 9B 00 00 00 00 
    68)        22.4  Rx         0005  8  00 00 00 00 00 00 00 00 
    69)        22.5  Rx     00000801  8  00 00 00 7F FF 80 08 00 
    70)        22.7  Rx     00000802  8  00 00 00 7F FF 80 08 00 
    71)        23.2  Rx     00002901  8  FC 7F 00 00 FF F6 1E 00 
    72)        23.4  Rx     00002902  8  FF C6 00 00 FF FB 1E 00 
    73)        24.2  Rx         0003  8  F9 E3 FF 9B 00 00 00 00 
    74)        24.4  Rx         0005  8  00 00 00 00 00 00 00 00 
    75)        24.5  Rx     00000801  8  00 00 00 7F FF 80 08 00 
    76)        24.7  Rx     00000802  8  00 00 00 7F FF 80 08 00 
    77)        25.2  Rx     00002901  8  FC 7F 00 00 FF F6 1E 00 
    78)        25.4  Rx     00002902  8  FF C6 00 00 FF FD 1E 00 
    79)        26.3  Rx         0003  8  F9 E3 FF 9B 00 00 00 00 
    80)        26.4  Rx         0005  8  00 00 00 00 00 00 00 00 
    81)        26.6  Rx     00000801  8  00 00 00 7F FF 80 08 00 
    82)        26.7  Rx     00000802  8  00 00 00 7F FF 80 08 00 
    83)        27.2  Rx     00002901  8  FC 7F 00 00 FF F5 1E 00 
    84)        27.4  Rx     00002902  8  FF C6 00 00 FF FD 1E 00 
    85)        28.3  Rx         0003  8  F9 E3 FF 9B 00 00 00 00 
    86)        28.4  Rx         0005  8  00 00 00 00 00 00 00 00 
    87)        28.5  Rx     00000801  8  00 00 00 7F FF 80 08 00 
    88)        28.7  Rx     00000802  8  00 00 00 7F FF 80 08 00 
    89)        29.2  Rx     00002901  8  FC 7F 00 00 FF F8 1E 00 
    90)        29.4  Rx     00002902  8  FF C6 00 00 FF FE 1E 00 
    91)        30.3  Rx         0003  8  F9 E3 FF 9B 00 00 00 00 
    92)        30.4  Rx         0005  8  00 00 00 00 00 00 00 00 
    93)        30.6  Rx     00000801  8  00 00 00 7F FF 80 08 00 
    94)        30.7  Rx     00000802  8  00 00 00 7F FF 80 08 00 
    95)        31.2  Rx     00002901  8  FC 7F 00 00 FF F9 1E 00 
    96)        31.4  Rx     00002902  8  FF C6 00 00 FF FB 1E 00 
    97)        32.3  Rx         0003  8  F9 E3 FF 9B 00 00 00 00 
    98)        32.4  Rx         0005  8  00 00 00 00 00 00 00 00 
    99)        32.5  Rx     00000801  8  00 00 00 7F FF 80 08 00 
   100)        32.7  Rx     00000802  8  00 00 00 7F FF 80 08 00 
   101)        33.2  Rx     00002901  8  FC 7F 00 00 FF F9 1E 00 
   102)        33.4  Rx     00002902  8  FF C6 00 00 FF FD 1E 00 
   103)        34.3  Rx         0003  8  F9 E3 FF 9B 00 00 00 00 
   104)        34.4  Rx         0005  8  00 00 00 00 00 00 00 00 
   105)        34.5  Rx     00000801  8  00 00 00 7F FF 80 08 00 
   106)        34.7  Rx     00000802  8  00 00 00 7F FF 80 08 00 
   107)        35.2  Rx     00002901  8  FC 7F 00 00 FF F7 1E 00 
   108)        35.4  Rx     00002902  8  FF C6 00 00 FF FD 1E 00 
   109)        36.2  Rx         0003  8  F9 E3 FF 9B 00 00 00 00 
   110)        36.4  Rx         0005  8  00 00 00 00 00 00 00 00 
   111)        36.5  Rx     00000801  8  00 00 00 7F FF 80 08 00 
   112)        36.7  Rx     00000802  8  00 00 00 7F FF 80 08 00 
   113)        37.2  Rx     00002901  8  FC 7F 00 00 FF F5 1E 00 
   114)        37.4  Rx     00002902  8  FF C6 00 00 FF FA 1E 00 
   115)        38.2  Rx         0003  8  F9 E3 FF 9B 00 00 00 00 
   116)        38.4  Rx         0005  8  00 00 00 00 00 00 00 00 
   117)        38.5  Rx     00000801  8  00 00 00 7F FF 80 08 00 
   118)        38.7  Rx     00000802  8  00 00 00 7F FF 80 08 00 
   119)        39.2  Rx     00002901  8  FC 7F 00 00 FF F9 1E 00 
   120)        39.4  Rx     00002902  8  FF C6 00 00 FF FC 1E 00 
   121)        40.2  Rx         0003  8  F9 E3 FF 9B 00 00 00 00 
   122)        40.4  Rx         0005  8  00 00 00 00 00 00 00 00 
   123)        40.5  Rx     00000801  8  00 00 00 7F FF 80 08 00 
   124)        40.7  Rx     00000802  8  00 00 00 7F FF 80 08 00 
   125)        41.2  Rx     00002901  8  FC 7F 00 00 FF F6 1E 00 
   126)        41.4  Rx     00002902  8  FF C6 00 00 FF FE 1E 00 
   127)        42.3  Rx         0003  8  F9 E3 FF 9B 00 00 00 00 
   128)        42.4  Rx         0005  8  00 00 00 00 00 00 00 00 
   129)        42.5  Rx     00000801  8  00 00 00 7F FF 80 08 00 
   130)        42.7  Rx     00000802  8  00 00 00 7F FF 80 08 00 
   131)        43.2  Rx     00002901  8  FC 7F 00 00 FF F6 1E 00 
   132)        43.4  Rx     00002902  8  FF C6 00 00 FF F8 1E 00 
   133)        44.3  Rx         0003  8  F9 E3 FF 9B 00 00 00 00 
   134)        44.4  Rx         0005  8  00 00 00 00 00 00 00 00 
   135)        44.6  Rx     00000801  8  00 00 00 7F FF 80 08 00 
   136)        44.7  Rx     00000802  8  00 00 00 7F FF 80 08 00 
   137)        45.2  Rx     00002901  8  FC 7F 00 00 FF F6 1E 00 
   138)        45.4  Rx     00002902  8  FF C6 00 00 FF FE 1E 00 
   139)        46.3  Rx         0003  8  F9 E3 FF 9B 00 00 00 00 
   140)        46.4  Rx         0005  8  00 00 00 00 00 00 00 00 
   141)        46.5  Rx     00000801  8  00 00 00 7F FF 80 08 00 
   142)        46.7  Rx     00000802  8  00 00 00 7F FF 80 08 00 
   143)        47.2  Rx     00002901  8  FC 7F 00 00 FF F6 1E 00 
   144)        47.4  Rx     00002902  8  FF C6 00 00 FF FE 1E 00 
   145)        48.3  Rx         0003  8  F9 E3 FF 9B 00 00 00 00 
   146)        48.4  Rx         0005  8  00 00 00 00 00 00 00 00 
   147)        48.5  Rx     00000801  8  00 00 00 7F FF 80 08 00 
   148)        48.7  Rx     00000802  8  00 00 00 7F FF 80 08 00 
   149)        49.2  Rx     00002901  8  FC 7F 00 00 FF FA 1E 00 
   150)        49.4  Rx     00002902  8  FF C6 00 00 FF FD 1E 00 
   151)        50.2  Rx         0003  8  F9 E3 FF 9B 00 00 00 00 
   152)        50.4  Rx         0005  8  00 00 00 00 00 00 00 00 
   153)        50.5  Rx     00000801  8  00 00 00 7F FF 80 08 00 
   154)        50.7  Rx     00000802  8  00 00 00 7F FF 80 08 00 
   155)        51.3  Rx     00002901  8  FC 7F 00 00 FF F9 1E 00 
   156)        51.4  Rx     00002902  8  FF C6 00 00 FF FC 1E 00 
   157)        52.3  Rx         0003  8  F9 E3 FF 9B 00 00 00 00 
   158)        52.4  Rx         0005  8  00 00 00 00 00 00 00 00 
   159)        52.5  Rx     00000801  8  00 00 00 7F FF 80 08 00 
   160)        52.7  Rx     00000802  8  00 00 00 7F FF 80 08 00 
   161)        53.3  Rx     00002901  8  FC 7F 00 00 FF FB 1E 00 
   162)        53.4  Rx     00002902  8  FF C6 00 00 FF FC 1E 00 
   163)        54.2  Rx         0003  8  F9 E3 FF 9B 00 00 00 00 
   164)        54.4  Rx         0005  8  00 00 00 00 00 00 00 00 
   165)        54.5  Rx     00000801  8  00 00 00 7F FF 80 08 00 
   166)        54.7  Rx     00000802  8  00 00 00 7F FF 80 08 00 
   167)        55.2  Rx     00002901  8  FC 7F 00 00 FF F7 1E 00 
   168)        55.4  Rx     00002902  8  FF C6 00 00 FF F9 1E 00 
   169)        56.2  Rx         0003  8  F9 E3 FF 9B 00 00 00 00 
   170)        56.4  Rx         0005  8  00 00 00 00 00 00 00 00 
   171)        56.5  Rx     00000801  8  00 00 00 7F FF 80 08 00 
   172)        56.7  Rx     00000802  8  00 00 00 7F FF 80 08 00 
   173)        57.2  Rx     00002901  8  FC 7F 00 00 FF FA 1E 00 
   174)        57.4  Rx     00002902  8  FF C6 00 00 FF FC 1E 00 
   175)        58.3  Rx         0003  8  F9 E3 FF 9B 00 00 00 00 
   176)        58.4  Rx         0005  8  00 00 00 00 00 00 00 00 
   177)        58.6  Rx     00000801  8  00 00 00 7F FF 80 08 00 
   178)        58.7  Rx     00000802  8  00 00 00 7F FF 80 08 00 
   179)        59.2  Rx     00002901  8  FC 7F 00 00 FF F7 1E 00 
   180)        59.4  Rx     00002902  8  FF C6 00 00 FF FD 1E 00 
   181)        60.3  Rx         0003  8  F9 E3 FF 9B 00 00 00 00 
   182)        60.4  Rx         0005  8  00 00 00 00 00 00 00 00 
   183)        60.6  Rx     00000801  8  00 00 00 7F FF 80 08 00 
   184)        60.7  Rx     00000802  8  00 00 00 7F FF 80 08 00 
   185)        61.2  Rx     00002901  8  FC 7F 00 00 FF F8 1E 00 
   186)        61.4  Rx     00002902  8  FF C6 00 00 FF F9 1E 00 
   187)        62.3  Rx         0003  8  F9 E3 FF 9B 00 00 00 00 
   188)        62.4  Rx         0005  8  00 00 00 00 00 00 00 00 
   189)        62.5  Rx     00000801  8  00 00 00 7F FF 80 08 00 
   190)        62.7  Rx     00000802  8  00 00 00 7F FF 80 08 00 
   191)        63.2  Rx     00002901  8  FC 7F 00 00 FF F9 1E 00 
   192)        63.4  Rx     00002902  8  FF C6 00 00 FF FC 1E 00 
   193)        64.2  Rx         0003  8  F9 E3 FF 9B 00 00 00 00 
   194)        64.4  Rx         0005  8  00 00 00 00 00 00 00 00 
   195)        64.5  Rx     00000801  8  00 00 00 7F FF 80 08 00 
   196)        64.7  Rx     00000802  8  00 00 00 7F FF 80 08 00 
   197)        65.2  Rx     00002901  8  FC 7F 00 00 FF F6 1E 00 
   198)        65.4  Rx     00002902  8  FF C6 00 00 FF FD 1E 00 
   199)        66.3  Rx         0003  8  F9 E3 FF 9B 00 00 00 00 
   200)        66.4  Rx         0005  8  00 00 00 00 00 00 00 00 
   201)        66.5  Rx     00000801  8  00 00 00 7F FF 80 08 00 
   202)        66.7  Rx     00000802  8  00 00 00 7F FF 80 08 00 
   203)        67.3  Rx     00002901  8  FC 7F 00 00 FF F7 1E 00 
   204)        67.4  Rx     00002902  8  FF C6 00 00 FF FC 1E 00 
   205)        68.2  Rx         0003  8  F9 E3 FF 9B 00 00 00 00 
   206)        68.4  Rx         0005  8  00 00 00 00 00 00 00 00 
   207)        68.5  Rx     00000801  8  00 00 00 7F FF 80 08 00 
   208)        68.7  Rx     00000802  8  00 00 00 7F FF 80 08 00 
   209)        69.2  Rx     00002901  8  FC 7F 00 00 FF F6 1E 00 
   210)        69.4  Rx     00002902  8  FF C6 00 00 FF FF 1E 00 
   211)        70.2  Rx         0003  8  F9 E3 FF 9B 00 00 00 00 
   212)        70.4  Rx         0005  8  00 00 00 00 00 00 00 00 
   213)        70.5  Rx     00000801  8  00 00 00 7F FF 80 08 00 
   214)        70.7  Rx     00000802  8  00 00 00 7F FF 80 08 00 
   215)        71.2  Rx     00002901  8  FC 7F 00 00 FF F7 1E 00 
   216)        71.4  Rx     00002902  8  FF C6 00 00 FF FC 1E 00 
   217)        72.2  Rx         0003  8  F9 E3 FF 9B 00 00 00 00 
   218)        72.4  Rx         0005  8  00 00 00 00 00 00 00 00 
   219)        72.5  Rx     00000801  8  00 00 00 7F FF 80 08 00 
   220)        72.7  Rx     00000802  8  00 00 00 7F FF 80 08 00 
   221)        73.2  Rx     00002901  8  FC 7F 00 00 FF F8 1E 00 
   222)        73.4  Rx     00002902  8  FF C6 00 00 FF FE 1E 00 
   223)        74.3  Rx         0003  8  F9 E3 FF 9B 00 00 00 00 
   224)        74.4  Rx         0005  8  00 00 00 00 00 00 00 00 
   225)        74.6  Rx     00000801  8  00 00 00 7F FF 80 08 00 
   226)        74.7  Rx     00000802  8  00 00 00 7F FF 80 08 00 
   227)        75.2  Rx     00002901  8  FC 7F 00 00 FF FA 1E 00 
   228)        75.4  Rx     00002902  8  FF C6 00 00 FF FA 1E 00 
   229)        76.3  Rx         0003  8  F9 E3 FF 9B 00 00 00 00 
   230)        76.4  Rx         0005  8  00 00 00 00 00 00 00 00 
   231)        76.5  Rx     00000801  8  00 00 00 7F FF 80 08 00 
   232)        76.7  Rx     00000802  8  00 00 00 7F FF 80 08 00 
   233)        77.2  Rx     00002901  8  FC 7F 00 00 FF F9 1E 00 
   234)        77.4  Rx     00002902  8  FF C6 00 00 FF FA 1E 00 
   235)        78.3  Rx         0003  8  F9 E3 FF 9B 00 00 00 00 
   236)        78.4  Rx         0005  8  00 00 00 00 00 00 00 00 
   237)        78.6  Rx     00000801  8  00 00 00 7F FF 80 08 00 
   238)        78.7  Rx     00000802  8  00 00 00 7F FF 80 08 00 
   239)        79.2  Rx     00002901  8  FC 7F 00 00 FF F8 1E 00 
   240)        79.4  Rx     00002902  8  FF C6 00 00 FF FE 1E 00 
   241)        80.3  Rx         0003  8  F9 E3 FF 9B 00 00 00 00 
   242)        80.4  Rx         0005  8  00 00 00 00 00 00 00 00 
   243)        80.5  Rx     00000801  8  00 00 00 7F FF 80 08 00 
   244)        80.7  Rx     00000802  8  00 00 00 7F FF 80 08 00 
   245)        81.2  Rx     00002901  8  FC 7F 00 00 FF F7 1E 00 
   246)        81.4  Rx     00002902  8  FF C6 00 00 FF FB 1E 00 
   247)        82.3  Rx         0003  8  F9 E3 FF 9B 00 00 00 00 
   248)        82.4  Rx         0005  8  00 00 00 00 00 00 00 00 
   249)        82.5  Rx     00000801  8  00 00 00 7F FF 80 08 00 
   250)        82.7  Rx     00000802  8  00 00 00 7F FF 80 08 00 
   251)        83.3  Rx     00002901  8  FC 7F 00 00 FF F7 1E 00 
   252)        83.4  Rx     00002902  8  FF C6 00 00 FF FC 1E 00 
   253)        84.2  Rx         0003  8  F9 E3 FF 9B 00 00 00 00 
   254)        84.4  Rx         0005  8  00 00 00 00 00 00 00 00 
   255)        84.5  Rx     00000801  8  00 00 00 7F FF 80 08 00 
   256)        84.7  Rx     00000802  8  00 00 00 7F FF 80 08 00 
   257)        85.2  Rx     00002901  8  FC 7F 00 00 FF F8 1E 00 
   258)        85.4  Rx     00002902  8  FF C6 00 00 FF F8 1E 00 
   259)        86.2  Rx         0003  8  F9 E3 FF 9B 00 00 00 00 
   260)        86.4  Rx         0005  8  00 00 00 00 00 00 00 00 
   261)        86.5  Rx     00000801  8  00 00 00 7F FF 80 08 00 
   262)        86.7  Rx     00000802  8  00 00 00 7F FF 80 08 00 
   263)        87.3  Rx     00002901  8  FC 7F 00 00 FF F7 1E 00 
   264)        87.4  Rx     00002902  8  FF C6 00 00 FF FE 1E 00 
   265)        88.2  Rx         0003  8  F9 E3 FF 9B 00 00 00 00 
   266)        88.4  Rx         0005  8  00 00 00 00 00 00 00 00 
   267)        88.5  Rx     00000801  8  00 00 00 7F FF 80 08 00 
   268)        88.7  Rx     00000802  8  00 00 00 7F FF 80 08 00 
   269)        89.2  Rx     00002901  8  FC 7F 00 00 FF F8 1E 00 
   270)        89.4  Rx     00002902  8  FF C6 00 00 FF FC 1E 00 
   271)        90.3  Rx         0003  8  F9 E3 FF 9B 00 00 00 00 
   272)        90.4  Rx         0005  8  00 00 00 00 00 00 00 00 
   273)        90.6  Rx     00000801  8  00 00 00 7F FF 80 08 00 
   274)        90.7  Rx     00000802  8  00 00 00 7F FF 80 08 00 
   275)        91.2  Rx     00002901  8  FC 7F 00 00 FF F9 1E 00 
   276)        91.4  Rx     00002902  8  FF C6 00 00 FF FD 1E 00 
   277)        92.3  Rx         0003  8  F9 E3 FF 9B 00 00 00 00 
   278)        92.4  Rx         0005  8  00 00 00 00 00 00 00 00 
   279)        92.5  Rx     00000801  8  00 00 00 7F FF 80 08 00 
   280)        92.7  Rx     00000802  8  00 00 00 7F FF 80 08 00 
   281)        93.2  Rx     00002901  8  FC 7F 00 00 FF F9 1E 00 
   282)        93.4  Rx     00002902  8  FF C6 00 00 FF FF 1E 00 
   283)        94.3  Rx         0003  8  F9 E3 FF 9B 00 00 00 00 
   284)        94.4  Rx         0005  8  00 00 00 00 00 00 00 00 
   285)        94.6  Rx     00000801  8  00 00 00 7F FF 80 08 00 
   286)        94.7  Rx     00000802  8  00 00 00 7F FF 80 08 00 
   287)        95.2  Rx     00002901  8  FC 7F 00 00 FF F8 1E 00 
   288)        95.4  Rx     00002902  8  FF C6 00 00 FF FB 1E 00 
   289)        96.3  Rx         0003  8  F9 E3 FF 9B 00 00 00 00 
   290)        96.4  Rx         0005  8  00 00 00 00 00 00 00 00 
   291)        96.5  Rx     00000801  8  00 00 00 7F FF 80 08 00 
   292)        96.7  Rx     00000802  8  00 00 00 7F FF 80 08 00 
   293)        97.2  Rx     00002901  8  FC 7F 00 00 FF F7 1E 00 
   294)        97.4  Rx     00002902  8  FF C6 00 00 FF FB 1E 00 
   295)        98.3  Rx         0003  8  F9 E3 FF 9B 00 00 00 00 
   296)        98.4  Rx         0005  8  00 00 00 00 00 00 00 00 
   297)        98.5  Rx     00000801  8  00 00 00 7F FF 80 08 00 
   298)        98.7  Rx     00000802  8  00 00 00 7F FF 80 08 00 
   299)        99.2  Rx     00002901  8  FC 7F 00 00 FF F6 1E 00 
   300)        99.4  Rx     00002902  8  FF C6 00 00 FF FF 1E 00 
   301)       100.2  Rx         0003  8  F9 E3 FF 9B 00 00 00 00 
   302)       100.4  Rx         0005  8  00 00 00 00 00 00 00 00 
   303)       100.5  Rx     00000801  8  00 00 00 7F FF 80 08 00 
   304)       100.7  Rx     00000802  8  00 00 00 7F FF 80 08 00 
   305)       101.3  Rx     00002901  8  FC 7F 00 00 FF F8 1E 00 
   306)       101.4  Rx     00002902  8  FF C6 00 00 FF FA 1E 00 
   307)       102.3  Rx         0003  8  F9 E3 FF 9B 00 00 00 00 
   308)       102.4  Rx         0005  8  00 00 00 00 00 00 00 00 
   309)       102.5  Rx     00000801  8  00 00 00 7F FF 80 08 00 
   310)       102.7  Rx     00000802  8  00 00 00 7F FF 80 08 00 
   311)       103.3  Rx     00002901  8  FC 7F 00 00 FF F4 1E 00 
   312)       103.4  Rx     00002902  8  FF C6 00 00 FF FE 1E 00 
   313)       104.2  Rx         0003  8  F9 E3 FF 9B 00 00 00 00 
   314)       104.4  Rx         0005  8  00 00 00 00 00 00 00 00 
   315)       104.5  Rx     00000801  8  00 00 00 7F FF 80 08 00 
   316)       104.7  Rx     00000802  8  00 00 00 7F FF 80 08 00 
   317)       105.2  Rx     00002901  8  FC 7F 00 00 FF F8 1E 00 
   318)       105.4  Rx     00002902  8  FF C6 00 00 FF FB 1E 00 
   319)       106.3  Rx         0003  8  F9 E3 FF 9B 00 00 00 00 
   320)       106.4  Rx         0005  8  00 00 00 00 00 00 00 00 
   321)       106.5  Rx     00000801  8  00 00 00 7F FF 80 08 00 
   322)       106.7  Rx     00000802  8  00 00 00 7F FF 80 08 00 
   323)       107.2  Rx     00002901  8  FC 7F 00 00 FF F7 1E 00 
   324)       107.4  Rx     00002902  8  FF C6 00 00 FF FB 1E 00 
   325)       108.3  Rx         0003  8  F9 E3 FF 9B 00 00 00 00 
   326)       108.4  Rx         0005  8  00 00 00 00 00 00 00 00 
   327)       108.6  Rx     00000801  8  00 00 00 7F FF 80 08 00 
   328)       108.7  Rx     00000802  8  00 00 00 7F FF 80 08 00 
   329)       109.2  Rx     00002901  8  FC 7F 00 00 FF F9 1E 00 
   330)       109.4  Rx     00002902  8  FF C6 00 00 FF FB 1E 00 
   331)       110.3  Rx         0003  8  F9 E3 FF 9B 00 00 00 00 
   332)       110.4  Rx         0005  8  00 00 00 00 00 00 00 00 
   333)       110.5  Rx     00000801  8  00 00 00 7F FF 80 08 00 
   334)       110.7  Rx     00000802  8  00 00 00 7F FF 80 08 00 
   335)       111.2  Rx     00002901  8  FC 7F 00 00 FF F9 1E 00 
   336)       111.4  Rx     00002902  8  FF C6 00 00 00 00 1E 00 
   337)       112.3  Rx         0003  8  F9 E3 FF 9B 00 00 00 00 
   338)       112.4  Rx         0005  8  00 00 00 00 00 00 00 00 
   339)       112.6  Rx     00000801  8  00 00 00 7F FF 80 08 00 
   340)       112.7  Rx     00000802  8  00 00 00 7F FF 80 08 00 
   341)       113.2  Rx     00002901  8  FC 7F 00 00 FF F7 1E 00 
   342)       113.4  Rx     00002902  8  FF C6 00 00 FF FC 1E 00 
   343)       114.3  Rx         0003  8  F9 E3 FF 9B 00 00 00 00 
   344)       114.4  Rx         0005  8  00 00 00 00 00 00 00 00 
   345)       114.5  Rx     00000801  8  00 00 00 7F FF 80 08 00 
   346)       114.7  Rx     00000802  8  00 00 00 7F FF 80 08 00 
   347)       115.3  Rx     00002901  8  FC 7F 00 00 FF FA 1E 00 
   348)       115.4  Rx     00002902  8  FF C6 00 00 FF F9 1E 00 
   349)       116.3  Rx         0003  8  F9 E3 FF 9B 00 00 00 00 
   350)       116.4  Rx         0005  8  00 00 00 00 00 00 00 00 
   351)       116.5  Rx     00000801  8  00 00 00 7F FF 80 08 00 
   352)       116.7  Rx     00000802  8  00 00 00 7F FF 80 08 00 
   353)       117.2  Rx     00002901  8  FC 7F 00 00 FF F9 1E 00 
   354)       117.4  Rx     00002902  8  FF C6 00 00 00 00 1E 00 
   355)       118.2  Rx         0003  8  F9 E3 FF 9B 00 00 00 00 
   356)       118.4  Rx         0005  8  00 00 00 00 00 00 00 00 
   357)       118.5  Rx     00000801  8  00 00 00 7F FF 80 08 00 
   358)       118.7  Rx     00000802  8  00 00 00 7F FF 80 08 00 
   359)       119.2  Rx     00002901  8  FC 7F 00 00 FF F9 1E 00 
   360)       119.4  Rx     00002902  8  FF C6 00 00 FF FC 1E 00 
   361)       120.2  Rx         0003  8  F9 E3 FF 9B 00 00 00 00 
   362)       120.4  Rx         0005  8  00 00 00 00 00 00 00 00 
   363)       120.5  Rx     00000801  8  00 00 00 7F FF 80 08 00 
   364)       120.7  Rx     00000802  8  00 00 00 7F FF 80 08 00 
   365)       121.2  Rx     00002901  8  FC 7F 00 00 FF F9 1E 00 
   366)       121.4  Rx     00002902  8  FF C6 00 00 FF FD 1E 00 
   367)       122.3  Rx         0003  8  F9 E3 FF 9B 00 00 00 00 
   368)       122.4  Rx         0005  8  00 00 00 00 00 00 00 00 
   369)       122.5  Rx     00000801  8  00 00 00 7F FF 80 08 00 
   370)       122.7  Rx     00000802  8  00 00 00 7F FF 80 08 00 
   371)       123.2  Rx     00002901  8  FC 7F 00 00 FF FA 1E 00 
