;$FILEVERSION=1.1
;$STARTTIME=45803.2252243287
;
;   Start time: 5/26/2025 05:24:19.382.0
;   Generated by PCAN-View v5.3.2.952
;
;   Message Number
;   |         Time Offset (ms)
;   |         |        Type
;   |         |        |        ID (hex)
;   |         |        |        |     Data Length
;   |         |        |        |     |   Data Bytes (hex) ...
;   |         |        |        |     |   |
;---+--   ----+----  --+--  ----+---  +  -+ -- -- -- -- -- -- --
     1)         0.1  Rx     00002902  8  00 0C 00 00 FF FF 27 00 
     2)         1.0  Rx         0003  8  F9 C5 00 14 00 00 00 00 
     3)         1.1  Rx         0005  8  00 00 00 00 00 00 00 00 
     4)         1.3  Rx     00000801  8  00 00 00 7F FF 80 08 00 
     5)         1.4  Rx     00000802  8  00 00 00 7F FF 80 08 00 
     6)         1.9  Rx     00002901  8  FC 6E 00 00 00 05 27 00 
     7)         2.1  Rx     00002902  8  00 0C 00 00 FF FF 27 00 
     8)         3.0  Rx         0003  8  F9 C5 00 14 00 00 00 00 
     9)         3.1  Rx         0005  8  00 00 00 00 00 00 00 00 
    10)         3.3  Rx     00000801  8  00 00 00 7F FF 80 08 00 
    11)         3.4  Rx     00000802  8  00 00 00 7F FF 80 08 00 
    12)         3.9  Rx     00002901  8  FC 6E 00 00 00 06 27 00 
    13)         4.1  Rx     00002902  8  00 0C 00 00 FF FF 27 00 
    14)         5.0  Rx         0003  8  F9 C5 00 14 00 00 00 00 
    15)         5.1  Rx         0005  8  00 00 00 00 00 00 00 00 
    16)         5.3  Rx     00000801  8  00 00 00 7F FF 80 08 00 
    17)         5.4  Rx     00000802  8  00 00 00 7F FF 80 08 00 
    18)         5.9  Rx     00002901  8  FC 6E 00 00 00 02 27 00 
    19)         6.1  Rx     00002902  8  00 0C 00 00 FF FF 27 00 
    20)         7.0  Rx         0003  8  F9 C5 00 14 00 00 00 00 
    21)         7.1  Rx         0005  8  00 00 00 00 00 00 00 00 
    22)         7.3  Rx     00000801  8  00 00 00 7F FF 80 08 00 
    23)         7.4  Rx     00000802  8  00 00 00 7F FF 80 08 00 
    24)         7.9  Rx     00002901  8  FC 6E 00 00 00 05 27 00 
    25)         8.1  Rx     00002902  8  00 0C 00 00 00 00 27 00 
    26)         9.0  Rx         0003  8  F9 C5 00 14 00 00 00 00 
    27)         9.1  Rx         0005  8  00 00 00 00 00 00 00 00 
    28)         9.3  Rx     00000801  8  00 00 00 7F FF 80 08 00 
    29)         9.4  Rx     00000802  8  00 00 00 7F FF 80 08 00 
    30)         9.9  Rx     00002901  8  FC 6E 00 00 00 0A 27 00 
    31)        10.1  Rx     00002902  8  00 0C 00 00 00 00 27 00 
    32)        11.0  Rx         0003  8  F9 C5 00 14 00 00 00 00 
    33)        11.1  Rx         0005  8  00 00 00 00 00 00 00 00 
    34)        11.3  Rx     00000801  8  00 00 00 7F FF 80 08 00 
    35)        11.4  Rx     00000802  8  00 00 00 7F FF 80 08 00 
    36)        11.9  Rx     00002901  8  FC 6E 00 00 00 02 27 00 
    37)        12.1  Rx     00002902  8  00 0C 00 00 00 00 27 00 
    38)        13.0  Rx         0003  8  F9 C5 00 14 00 00 00 00 
    39)        13.1  Rx         0005  8  00 00 00 00 00 00 00 00 
    40)        13.3  Rx     00000801  8  00 00 00 7F FF 80 08 00 
    41)        13.4  Rx     00000802  8  00 00 00 7F FF 80 08 00 
    42)        13.9  Rx     00002901  8  FC 6E 00 00 00 07 27 00 
    43)        14.1  Rx     00002902  8  00 0C 00 00 FF FE 27 00 
    44)        15.0  Rx         0003  8  F9 C5 00 14 00 00 00 00 
    45)        15.1  Rx         0005  8  00 00 00 00 00 00 00 00 
    46)        15.3  Rx     00000801  8  00 00 00 7F FF 80 08 00 
    47)        15.4  Rx     00000802  8  00 00 00 7F FF 80 08 00 
    48)        15.9  Rx     00002901  8  FC 6E 00 00 00 07 27 00 
    49)        16.1  Rx     00002902  8  00 0C 00 00 00 00 27 00 
    50)        17.0  Rx         0003  8  F9 C5 00 14 00 00 00 00 
    51)        17.1  Rx         0005  8  00 00 00 00 00 00 00 00 
    52)        17.3  Rx     00000801  8  00 00 00 7F FF 80 08 00 
    53)        17.4  Rx     00000802  8  00 00 00 7F FF 80 08 00 
    54)        17.9  Rx     00002901  8  FC 6E 00 00 00 06 27 00 
    55)        18.1  Rx     00002902  8  00 0C 00 00 FF FF 27 00 
    56)        19.0  Rx         0003  8  F9 C5 00 14 00 00 00 00 
    57)        19.1  Rx         0005  8  00 00 00 00 00 00 00 00 
    58)        19.3  Rx     00000801  8  00 00 00 7F FF 80 08 00 
    59)        19.4  Rx     00000802  8  00 00 00 7F FF 80 08 00 
    60)        19.9  Rx     00002901  8  FC 6E 00 00 00 07 27 00 
    61)        20.1  Rx     00002902  8  00 0C 00 00 00 00 27 00 
    62)        21.0  Rx         0003  8  F9 C5 00 14 00 00 00 00 
    63)        21.1  Rx         0005  8  00 00 00 00 00 00 00 00 
    64)        21.3  Rx     00000801  8  00 00 00 7F FF 80 08 00 
    65)        21.4  Rx     00000802  8  00 00 00 7F FF 80 08 00 
    66)        22.0  Rx     00002901  8  FC 6E 00 00 00 03 27 00 
    67)        22.1  Rx     00002902  8  00 0C 00 00 00 00 27 00 
    68)        23.0  Rx         0003  8  F9 C5 00 14 00 00 00 00 
    69)        23.1  Rx         0005  8  00 00 00 00 00 00 00 00 
    70)        23.3  Rx     00000801  8  00 00 00 7F FF 80 08 00 
    71)        23.4  Rx     00000802  8  00 00 00 7F FF 80 08 00 
    72)        23.9  Rx     00002901  8  FC 6E 00 00 00 09 27 00 
    73)        24.1  Rx     00002902  8  00 0C 00 00 00 00 27 00 
    74)        25.0  Rx         0003  8  F9 C5 00 14 00 00 00 00 
    75)        25.1  Rx         0005  8  00 00 00 00 00 00 00 00 
    76)        25.3  Rx     00000801  8  00 00 00 7F FF 80 08 00 
    77)        25.4  Rx     00000802  8  00 00 00 7F FF 80 08 00 
    78)        25.9  Rx     00002901  8  FC 6E 00 00 00 07 27 00 
    79)        26.1  Rx     00002902  8  00 0C 00 00 FF FF 27 00 
    80)        27.0  Rx         0003  8  F9 C5 00 14 00 00 00 00 
    81)        27.1  Rx         0005  8  00 00 00 00 00 00 00 00 
    82)        27.3  Rx     00000801  8  00 00 00 7F FF 80 08 00 
    83)        27.4  Rx     00000802  8  00 00 00 7F FF 80 08 00 
    84)        27.9  Rx     00002901  8  FC 6E 00 00 00 05 27 00 
    85)        28.1  Rx     00002902  8  00 0C 00 00 00 00 27 00 
    86)        29.0  Rx         0003  8  F9 C5 00 14 00 00 00 00 
    87)        29.1  Rx         0005  8  00 00 00 00 00 00 00 00 
    88)        29.3  Rx     00000801  8  00 00 00 7F FF 80 08 00 
    89)        29.4  Rx     00000802  8  00 00 00 7F FF 80 08 00 
    90)        29.9  Rx     00002901  8  FC 6E 00 00 00 01 27 00 
    91)        30.1  Rx     00002902  8  00 0C 00 00 FF FF 27 00 
    92)        31.0  Rx         0003  8  F9 C5 00 14 00 00 00 00 
    93)        31.1  Rx         0005  8  00 00 00 00 00 00 00 00 
    94)        31.3  Rx     00000801  8  00 00 00 7F FF 80 08 00 
    95)        31.4  Rx     00000802  8  00 00 00 7F FF 80 08 00 
    96)        31.9  Rx     00002901  8  FC 6E 00 00 00 04 27 00 
    97)        32.1  Rx     00002902  8  00 0C 00 00 FF FF 27 00 
    98)        33.0  Rx         0003  8  F9 C5 00 14 00 00 00 00 
    99)        33.1  Rx         0005  8  00 00 00 00 00 00 00 00 
   100)        33.3  Rx     00000801  8  00 00 00 7F FF 80 08 00 
   101)        33.4  Rx     00000802  8  00 00 00 7F FF 80 08 00 
   102)        33.9  Rx     00002901  8  FC 6E 00 00 00 04 27 00 
   103)        34.1  Rx     00002902  8  00 0C 00 00 00 00 26 00 
   104)        35.0  Rx         0003  8  F9 C5 00 14 00 00 00 00 
   105)        35.1  Rx         0005  8  00 00 00 00 00 00 00 00 
   106)        35.3  Rx     00000801  8  00 00 00 7F FF 80 08 00 
   107)        35.4  Rx     00000802  8  00 00 00 7F FF 80 08 00 
   108)        36.0  Rx     00002901  8  FC 6E 00 00 00 08 27 00 
   109)        36.1  Rx     00002902  8  00 0C 00 00 00 00 26 00 
   110)        37.0  Rx         0003  8  F9 C5 00 14 00 00 00 00 
   111)        37.1  Rx         0005  8  00 00 00 00 00 00 00 00 
   112)        37.3  Rx     00000801  8  00 00 00 7F FF 80 08 00 
   113)        37.4  Rx     00000802  8  00 00 00 7F FF 80 08 00 
   114)        38.0  Rx     00002901  8  FC 6E 00 00 00 08 27 00 
   115)        38.1  Rx     00002902  8  00 0C 00 00 FF FF 27 00 
   116)        39.0  Rx         0003  8  F9 C5 00 14 00 00 00 00 
   117)        39.1  Rx         0005  8  00 00 00 00 00 00 00 00 
   118)        39.3  Rx     00000801  8  00 00 00 7F FF 80 08 00 
   119)        39.4  Rx     00000802  8  00 00 00 7F FF 80 08 00 
   120)        39.9  Rx     00002901  8  FC 6E 00 00 00 06 27 00 
   121)        40.1  Rx     00002902  8  00 0C 00 00 00 00 27 00 
   122)        41.0  Rx         0003  8  F9 C5 00 14 00 00 00 00 
   123)        41.1  Rx         0005  8  00 00 00 00 00 00 00 00 
   124)        41.3  Rx     00000801  8  00 00 00 7F FF 80 08 00 
   125)        41.4  Rx     00000802  8  00 00 00 7F FF 80 08 00 
   126)        41.9  Rx     00002901  8  FC 6E 00 00 00 07 27 00 
   127)        42.1  Rx     00002902  8  00 0C 00 00 FF FE 27 00 
   128)        43.0  Rx         0003  8  F9 C5 00 14 00 00 00 00 
   129)        43.1  Rx         0005  8  00 00 00 00 00 00 00 00 
   130)        43.3  Rx     00000801  8  00 00 00 7F FF 80 08 00 
   131)        43.4  Rx     00000802  8  00 00 00 7F FF 80 08 00 
   132)        43.9  Rx     00002901  8  FC 6E 00 00 00 03 27 00 
   133)        44.1  Rx     00002902  8  00 0C 00 00 FF FF 27 00 
   134)        45.0  Rx         0003  8  F9 C5 00 14 00 00 00 00 
   135)        45.1  Rx         0005  8  00 00 00 00 00 00 00 00 
   136)        45.3  Rx     00000801  8  00 00 00 7F FF 80 08 00 
   137)        45.4  Rx     00000802  8  00 00 00 7F FF 80 08 00 
   138)        45.9  Rx     00002901  8  FC 6E 00 00 00 06 27 00 
   139)        46.1  Rx     00002902  8  00 0C 00 00 00 00 27 00 
   140)        47.0  Rx         0003  8  F9 C5 00 14 00 00 00 00 
   141)        47.1  Rx         0005  8  00 00 00 00 00 00 00 00 
   142)        47.3  Rx     00000801  8  00 00 00 7F FF 80 08 00 
   143)        47.4  Rx     00000802  8  00 00 00 7F FF 80 08 00 
   144)        47.9  Rx     00002901  8  FC 6E 00 00 00 08 27 00 
   145)        48.1  Rx     00002902  8  00 0C 00 00 FF FE 27 00 
   146)        49.0  Rx         0003  8  F9 C5 00 14 00 00 00 00 
   147)        49.1  Rx         0005  8  00 00 00 00 00 00 00 00 
   148)        49.3  Rx     00000801  8  00 00 00 7F FF 80 08 00 
   149)        49.4  Rx     00000802  8  00 00 00 7F FF 80 08 00 
   150)        49.9  Rx     00002901  8  FC 6E 00 00 00 03 27 00 
   151)        50.1  Rx     00002902  8  00 0C 00 00 00 00 27 00 
   152)        51.0  Rx         0003  8  F9 C5 00 14 00 00 00 00 
   153)        51.1  Rx         0005  8  00 00 00 00 00 00 00 00 
   154)        51.3  Rx     00000801  8  00 00 00 7F FF 80 08 00 
   155)        51.4  Rx     00000802  8  00 00 00 7F FF 80 08 00 
   156)        52.0  Rx     00002901  8  FC 6E 00 00 00 08 27 00 
   157)        52.1  Rx     00002902  8  00 0C 00 00 00 00 27 00 
   158)        53.0  Rx         0003  8  F9 C5 00 14 00 00 00 00 
   159)        53.1  Rx         0005  8  00 00 00 00 00 00 00 00 
   160)        53.3  Rx     00000801  8  00 00 00 7F FF 80 08 00 
   161)        53.4  Rx     00000802  8  00 00 00 7F FF 80 08 00 
   162)        53.9  Rx     00002901  8  FC 6E 00 00 00 05 27 00 
   163)        54.1  Rx     00002902  8  00 0C 00 00 00 00 27 00 
   164)        55.0  Rx         0003  8  F9 C5 00 14 00 00 00 00 
   165)        55.1  Rx         0005  8  00 00 00 00 00 00 00 00 
   166)        55.3  Rx     00000801  8  00 00 00 7F FF 80 08 00 
   167)        55.4  Rx     00000802  8  00 00 00 7F FF 80 08 00 
   168)        55.9  Rx     00002901  8  FC 6E 00 00 00 08 27 00 
   169)        56.1  Rx     00002902  8  00 0C 00 00 FF FF 27 00 
   170)        57.0  Rx         0003  8  F9 C5 00 14 00 00 00 00 
   171)        57.1  Rx         0005  8  00 00 00 00 00 00 00 00 
   172)        57.3  Rx     00000801  8  00 00 00 7F FF 80 08 00 
   173)        57.4  Rx     00000802  8  00 00 00 7F FF 80 08 00 
   174)        57.9  Rx     00002901  8  FC 6E 00 00 00 05 27 00 
   175)        58.1  Rx     00002902  8  00 0C 00 00 FF FF 27 00 
   176)        59.0  Rx         0003  8  F9 C5 00 14 00 00 00 00 
   177)        59.1  Rx         0005  8  00 00 00 00 00 00 00 00 
   178)        59.2  Rx     00000801  8  00 00 00 7F FF 80 08 00 
   179)        59.4  Rx     00000802  8  00 00 00 7F FF 80 08 00 
   180)        59.9  Rx     00002901  8  FC 6E 00 00 00 06 27 00 
   181)        60.1  Rx     00002902  8  00 0C 00 00 FF FF 27 00 
   182)        61.0  Rx         0003  8  F9 C5 00 14 00 00 00 00 
   183)        61.1  Rx         0005  8  00 00 00 00 00 00 00 00 
   184)        61.3  Rx     00000801  8  00 00 00 7F FF 80 08 00 
   185)        61.4  Rx     00000802  8  00 00 00 7F FF 80 08 00 
   186)        61.9  Rx     00002901  8  FC 6E 00 00 00 09 27 00 
   187)        62.1  Rx     00002902  8  00 0C 00 00 FF FE 27 00 
   188)        63.0  Rx         0003  8  F9 C5 00 14 00 00 00 00 
   189)        63.1  Rx         0005  8  00 00 00 00 00 00 00 00 
   190)        63.3  Rx     00000801  8  00 00 00 7F FF 80 08 00 
   191)        63.4  Rx     00000802  8  00 00 00 7F FF 80 08 00 
   192)        63.9  Rx     00002901  8  FC 6E 00 00 00 04 27 00 
   193)        64.1  Rx     00002902  8  00 0C 00 00 00 00 27 00 
   194)        65.0  Rx         0003  8  F9 C5 00 14 00 00 00 00 
   195)        65.1  Rx         0005  8  00 00 00 00 00 00 00 00 
   196)        65.3  Rx     00000801  8  00 00 00 7F FF 80 08 00 
   197)        65.4  Rx     00000802  8  00 00 00 7F FF 80 08 00 
   198)        65.9  Rx     00002901  8  FC 6E 00 00 00 07 27 00 
   199)        66.1  Rx     00002902  8  00 0C 00 00 FF FE 27 00 
   200)        67.0  Rx         0003  8  F9 C5 00 14 00 00 00 00 
   201)        67.1  Rx         0005  8  00 00 00 00 00 00 00 00 
   202)        67.3  Rx     00000801  8  00 00 00 7F FF 80 08 00 
   203)        67.4  Rx     00000802  8  00 00 00 7F FF 80 08 00 
   204)        67.9  Rx     00002901  8  FC 6E 00 00 00 0A 27 00 
   205)        68.1  Rx     00002902  8  00 0C 00 00 00 00 27 00 
   206)        69.0  Rx         0003  8  F9 C5 00 14 00 00 00 00 
   207)        69.1  Rx         0005  8  00 00 00 00 00 00 00 00 
   208)        69.3  Rx     00000801  8  00 00 00 7F FF 80 08 00 
   209)        69.4  Rx     00000802  8  00 00 00 7F FF 80 08 00 
   210)        69.9  Rx     00002901  8  FC 6E 00 00 00 04 27 00 
   211)        70.1  Rx     00002902  8  00 0C 00 00 FF FE 27 00 
   212)        71.0  Rx         0003  8  F9 C5 00 14 00 00 00 00 
   213)        71.1  Rx         0005  8  00 00 00 00 00 00 00 00 
   214)        71.3  Rx     00000801  8  00 00 00 7F FF 80 08 00 
   215)        71.4  Rx     00000802  8  00 00 00 7F FF 80 08 00 
   216)        71.9  Rx     00002901  8  FC 6E 00 00 00 04 27 00 
   217)        72.1  Rx     00002902  8  00 0C 00 00 00 00 27 00 
   218)        73.0  Rx         0003  8  F9 C5 00 14 00 00 00 00 
   219)        73.1  Rx         0005  8  00 00 00 00 00 00 00 00 
   220)        73.3  Rx     00000801  8  00 00 00 7F FF 80 08 00 
   221)        73.4  Rx     00000802  8  00 00 00 7F FF 80 08 00 
   222)        73.9  Rx     00002901  8  FC 6E 00 00 00 05 27 00 
   223)        74.1  Rx     00002902  8  00 0C 00 00 00 00 27 00 
   224)        75.0  Rx         0003  8  F9 C5 00 14 00 00 00 00 
   225)        75.1  Rx         0005  8  00 00 00 00 00 00 00 00 
   226)        75.2  Rx     00000801  8  00 00 00 7F FF 80 08 00 
   227)        75.4  Rx     00000802  8  00 00 00 7F FF 80 08 00 
   228)        75.9  Rx     00002901  8  FC 6E 00 00 00 07 27 00 
   229)        76.1  Rx     00002902  8  00 0C 00 00 00 00 27 00 
   230)        77.0  Rx         0003  8  F9 C5 00 14 00 00 00 00 
   231)        77.1  Rx         0005  8  00 00 00 00 00 00 00 00 
   232)        77.3  Rx     00000801  8  00 00 00 7F FF 80 08 00 
   233)        77.4  Rx     00000802  8  00 00 00 7F FF 80 08 00 
   234)        77.9  Rx     00002901  8  FC 6E 00 00 00 0A 27 00 
   235)        78.1  Rx     00002902  8  00 0C 00 00 FF FE 27 00 
   236)        79.0  Rx         0003  8  F9 C5 00 14 00 00 00 00 
   237)        79.1  Rx         0005  8  00 00 00 00 00 00 00 00 
   238)        79.3  Rx     00000801  8  00 00 00 7F FF 80 08 00 
   239)        79.4  Rx     00000802  8  00 00 00 7F FF 80 08 00 
   240)        79.9  Rx     00002901  8  FC 6E 00 00 00 08 27 00 
   241)        80.1  Rx     00002902  8  00 0C 00 00 FF FF 27 00 
   242)        81.0  Rx         0003  8  F9 C5 00 14 00 00 00 00 
   243)        81.1  Rx         0005  8  00 00 00 00 00 00 00 00 
   244)        81.3  Rx     00000801  8  00 00 00 7F FF 80 08 00 
   245)        81.4  Rx     00000802  8  00 00 00 7F FF 80 08 00 
   246)        81.9  Rx     00002901  8  FC 6E 00 00 00 08 27 00 
   247)        82.1  Rx     00002902  8  00 0C 00 00 00 01 27 00 
   248)        83.0  Rx         0003  8  F9 C5 00 14 00 00 00 00 
   249)        83.1  Rx         0005  8  00 00 00 00 00 00 00 00 
   250)        83.3  Rx     00000801  8  00 00 00 7F FF 80 08 00 
   251)        83.4  Rx     00000802  8  00 00 00 7F FF 80 08 00 
   252)        83.9  Rx     00002901  8  FC 6E 00 00 00 07 27 00 
   253)        84.1  Rx     00002902  8  00 0C 00 00 00 00 27 00 
   254)        85.0  Rx         0003  8  F9 C5 00 14 00 00 00 00 
   255)        85.1  Rx         0005  8  00 00 00 00 00 00 00 00 
   256)        85.3  Rx     00000801  8  00 00 00 7F FF 80 08 00 
   257)        85.4  Rx     00000802  8  00 00 00 7F FF 80 08 00 
   258)        85.9  Rx     00002901  8  FC 6E 00 00 00 04 27 00 
   259)        86.1  Rx     00002902  8  00 0C 00 00 FF FF 27 00 
   260)        87.0  Rx         0003  8  F9 C5 00 14 00 00 00 00 
   261)        87.1  Rx         0005  8  00 00 00 00 00 00 00 00 
   262)        87.3  Rx     00000801  8  00 00 00 7F FF 80 08 00 
   263)        87.4  Rx     00000802  8  00 00 00 7F FF 80 08 00 
   264)        87.9  Rx     00002901  8  FC 6E 00 00 00 0B 27 00 
   265)        88.1  Rx     00002902  8  00 0C 00 00 FF FF 27 00 
   266)        89.0  Rx         0003  8  F9 C5 00 14 00 00 00 00 
   267)        89.2  Rx         0005  8  00 00 00 00 00 00 00 00 
   268)        89.3  Rx     00000801  8  00 00 00 7F FF 80 08 00 
   269)        89.4  Rx     00000802  8  00 00 00 7F FF 80 08 00 
   270)        89.9  Rx     00002901  8  FC 6E 00 00 00 07 27 00 
   271)        90.1  Rx     00002902  8  00 0C 00 00 00 00 27 00 
   272)        91.0  Rx         0003  8  F9 C5 00 14 00 00 00 00 
   273)        91.1  Rx         0005  8  00 00 00 00 00 00 00 00 
   274)        91.2  Rx     00000801  8  00 00 00 7F FF 80 08 00 
   275)        91.4  Rx     00000802  8  00 00 00 7F FF 80 08 00 
   276)        91.9  Rx     00002901  8  FC 6E 00 00 00 05 27 00 
   277)        92.1  Rx     00002902  8  00 0C 00 00 FF FE 27 00 
   278)        93.0  Rx         0003  8  F9 C5 00 14 00 00 00 00 
   279)        93.1  Rx         0005  8  00 00 00 00 00 00 00 00 
   280)        93.3  Rx     00000801  8  00 00 00 7F FF 80 08 00 
   281)        93.4  Rx     00000802  8  00 00 00 7F FF 80 08 00 
   282)        93.9  Rx     00002901  8  FC 6E 00 00 00 04 27 00 
   283)        94.1  Rx     00002902  8  00 0C 00 00 FF FF 27 00 
   284)        95.0  Rx         0003  8  F9 C5 00 14 00 00 00 00 
   285)        95.1  Rx         0005  8  00 00 00 00 00 00 00 00 
   286)        95.3  Rx     00000801  8  00 00 00 7F FF 80 08 00 
   287)        95.4  Rx     00000802  8  00 00 00 7F FF 80 08 00 
   288)        95.9  Rx     00002901  8  FC 6E 00 00 00 08 27 00 
   289)        96.1  Rx     00002902  8  00 0C 00 00 FF FE 27 00 
   290)        97.0  Rx         0003  8  F9 C5 00 14 00 00 00 00 
   291)        97.1  Rx         0005  8  00 00 00 00 00 00 00 00 
   292)        97.3  Rx     00000801  8  00 00 00 7F FF 80 08 00 
   293)        97.4  Rx     00000802  8  00 00 00 7F FF 80 08 00 
   294)        97.9  Rx     00002901  8  FC 6E 00 00 00 09 27 00 
   295)        98.1  Rx     00002902  8  00 0C 00 00 00 00 27 00 
   296)        99.0  Rx         0003  8  F9 C5 00 14 00 00 00 00 
   297)        99.1  Rx         0005  8  00 00 00 00 00 00 00 00 
   298)        99.3  Rx     00000801  8  00 00 00 7F FF 80 08 00 
   299)        99.4  Rx     00000802  8  00 00 00 7F FF 80 08 00 
   300)        99.9  Rx     00002901  8  FC 6E 00 00 00 04 27 00 
   301)       100.1  Rx     00002902  8  00 0C 00 00 FF FF 27 00 
   302)       101.0  Rx         0003  8  F9 C5 00 14 00 00 00 00 
   303)       101.1  Rx         0005  8  00 00 00 00 00 00 00 00 
   304)       101.3  Rx     00000801  8  00 00 00 7F FF 80 08 00 
   305)       101.4  Rx     00000802  8  00 00 00 7F FF 80 08 00 
   306)       101.9  Rx     00002901  8  FC 6E 00 00 00 03 27 00 
   307)       102.1  Rx     00002902  8  00 0C 00 00 00 00 27 00 
   308)       103.0  Rx         0003  8  F9 C5 00 14 00 00 00 00 
   309)       103.1  Rx         0005  8  00 00 00 00 00 00 00 00 
   310)       103.3  Rx     00000801  8  00 00 00 7F FF 80 08 00 
   311)       103.4  Rx     00000802  8  00 00 00 7F FF 80 08 00 
   312)       104.0  Rx     00002901  8  FC 6E 00 00 00 06 27 00 
   313)       104.1  Rx     00002902  8  00 0C 00 00 FF FF 27 00 
   314)       105.0  Rx         0003  8  F9 C5 00 14 00 00 00 00 
   315)       105.1  Rx         0005  8  00 00 00 00 00 00 00 00 
   316)       105.3  Rx     00000801  8  00 00 00 7F FF 80 08 00 
   317)       105.4  Rx     00000802  8  00 00 00 7F FF 80 08 00 
   318)       105.9  Rx     00002901  8  FC 6E 00 00 00 09 27 00 
   319)       106.1  Rx     00002902  8  00 0C 00 00 00 00 27 00 
   320)       107.0  Rx         0003  8  F9 C5 00 14 00 00 00 00 
   321)       107.1  Rx         0005  8  00 00 00 00 00 00 00 00 
   322)       107.3  Rx     00000801  8  00 00 00 7F FF 80 08 00 
   323)       107.4  Rx     00000802  8  00 00 00 7F FF 80 08 00 
   324)       107.9  Rx     00002901  8  FC 6E 00 00 00 0A 27 00 
   325)       108.1  Rx     00002902  8  00 0C 00 00 00 00 27 00 
   326)       109.0  Rx         0003  8  F9 C5 00 14 00 00 00 00 
   327)       109.1  Rx         0005  8  00 00 00 00 00 00 00 00 
   328)       109.3  Rx     00000801  8  00 00 00 7F FF 80 08 00 
   329)       109.4  Rx     00000802  8  00 00 00 7F FF 80 08 00 
   330)       109.9  Rx     00002901  8  FC 6E 00 00 00 09 27 00 
   331)       110.1  Rx     00002902  8  00 0C 00 00 FF FE 27 00 
   332)       111.0  Rx         0003  8  F9 C5 00 14 00 00 00 00 
   333)       111.1  Rx         0005  8  00 00 00 00 00 00 00 00 
   334)       111.3  Rx     00000801  8  00 00 00 7F FF 80 08 00 
   335)       111.4  Rx     00000802  8  00 00 00 7F FF 80 08 00 
   336)       111.9  Rx     00002901  8  FC 6E 00 00 00 06 27 00 
   337)       112.1  Rx     00002902  8  00 0C 00 00 00 00 27 00 
   338)       113.0  Rx         0003  8  F9 C5 00 14 00 00 00 00 
   339)       113.1  Rx         0005  8  00 00 00 00 00 00 00 00 
   340)       113.3  Rx     00000801  8  00 00 00 7F FF 80 08 00 
   341)       113.4  Rx     00000802  8  00 00 00 7F FF 80 08 00 
   342)       113.9  Rx     00002901  8  FC 6E 00 00 00 04 27 00 
   343)       114.1  Rx     00002902  8  00 0C 00 00 FF FF 27 00 
   344)       115.0  Rx         0003  8  F9 C5 00 14 00 00 00 00 
   345)       115.1  Rx         0005  8  00 00 00 00 00 00 00 00 
   346)       115.3  Rx     00000801  8  00 00 00 7F FF 80 08 00 
   347)       115.4  Rx     00000802  8  00 00 00 7F FF 80 08 00 
   348)       115.9  Rx     00002901  8  FC 6E 00 00 00 09 27 00 
   349)       116.1  Rx     00002902  8  00 0C 00 00 00 01 27 00 
   350)       117.0  Rx         0003  8  F9 C5 00 14 00 00 00 00 
   351)       117.1  Rx         0005  8  00 00 00 00 00 00 00 00 
   352)       117.3  Rx     00000801  8  00 00 00 7F FF 80 08 00 
   353)       117.4  Rx     00000802  8  00 00 00 7F FF 80 08 00 
   354)       118.0  Rx     00002901  8  FC 6E 00 00 00 0B 27 00 
   355)       118.1  Rx     00002902  8  00 0C 00 00 FF FF 27 00 
   356)       119.0  Rx         0003  8  F9 C5 00 14 00 00 00 00 
   357)       119.1  Rx         0005  8  00 00 00 00 00 00 00 00 
   358)       119.3  Rx     00000801  8  00 00 00 7F FF 80 08 00 
   359)       119.4  Rx     00000802  8  00 00 00 7F FF 80 08 00 
   360)       119.9  Rx     00002901  8  FC 6E 00 00 00 07 27 00 
   361)       120.1  Rx     00002902  8  00 0C 00 00 FF FD 27 00 
   362)       121.0  Rx         0003  8  F9 C5 00 14 00 00 00 00 
   363)       121.1  Rx         0005  8  00 00 00 00 00 00 00 00 
   364)       121.3  Rx     00000801  8  00 00 00 7F FF 80 08 00 
   365)       121.4  Rx     00000802  8  00 00 00 7F FF 80 08 00 
   366)       121.9  Rx     00002901  8  FC 6E 00 00 00 07 27 00 
   367)       122.1  Rx     00002902  8  00 0C 00 00 FF FE 27 00 
   368)       123.0  Rx         0003  8  F9 C5 00 14 00 00 00 00 
   369)       123.1  Rx         0005  8  00 00 00 00 00 00 00 00 
   370)       123.3  Rx     00000801  8  00 00 00 7F FF 80 08 00 
   371)       123.4  Rx     00000802  8  00 00 00 7F FF 80 08 00 
