;$FILEVERSION=1.1
;$STARTTIME=45804.2888187269
;
;   Start time: 5/27/2025 06:55:53.938.0
;   Generated by PCAN-View v5.3.2.952
;
;   Message Number
;   |         Time Offset (ms)
;   |         |        Type
;   |         |        |        ID (hex)
;   |         |        |        |     Data Length
;   |         |        |        |     |   Data Bytes (hex) ...
;   |         |        |        |     |   |
;---+--   ----+----  --+--  ----+---  +  -+ -- -- -- -- -- -- --
     1)         0.0  Rx     00002902  8  FF C8 00 00 00 00 17 00 
     2)         0.9  Rx         0003  8  FA 12 FF 9F 00 00 00 00 
     3)         1.0  Rx         0005  8  00 00 00 00 00 00 00 00 
     4)         1.1  Rx     00000801  8  00 00 00 7F FF 80 08 00 
     5)         1.3  Rx     00000802  8  00 00 00 7F FF 80 08 00 
     6)         1.9  Rx     00002901  8  FC 9A 00 00 FF F7 18 00 
     7)         2.0  Rx     00002902  8  FF C8 00 00 00 00 17 00 
     8)         2.9  Rx         0003  8  FA 12 FF 9F 00 00 00 00 
     9)         3.0  Rx         0005  8  00 00 00 00 00 00 00 00 
    10)         3.1  Rx     00000801  8  00 00 00 7F FF 80 08 00 
    11)         3.3  Rx     00000802  8  00 00 00 7F FF 80 08 00 
    12)         3.9  Rx     00002901  8  FC 9A 00 00 FF FC 18 00 
    13)         4.0  Rx     00002902  8  FF C8 00 00 00 03 17 00 
    14)         4.8  Rx         0003  8  FA 12 FF 9F 00 00 00 00 
    15)         5.0  Rx         0005  8  00 00 00 00 00 00 00 00 
    16)         5.1  Rx     00000801  8  00 00 00 7F FF 80 08 00 
    17)         5.3  Rx     00000802  8  00 00 00 7F FF 80 08 00 
    18)         5.8  Rx     00002901  8  FC 9A 00 00 FF FD 18 00 
    19)         6.0  Rx     00002902  8  FF C8 00 00 FF FD 17 00 
    20)         6.8  Rx         0003  8  FA 12 FF 9F 00 00 00 00 
    21)         7.0  Rx         0005  8  00 00 00 00 00 00 00 00 
    22)         7.1  Rx     00000801  8  00 00 00 7F FF 80 08 00 
    23)         7.3  Rx     00000802  8  00 00 00 7F FF 80 08 00 
    24)         7.8  Rx     00002901  8  FC 9A 00 00 FF FA 18 00 
    25)         8.0  Rx     00002902  8  FF C8 00 00 00 00 17 00 
    26)         8.8  Rx         0003  8  FA 12 FF 9F 00 00 00 00 
    27)         9.0  Rx         0005  8  00 00 00 00 00 00 00 00 
    28)         9.1  Rx     00000801  8  00 00 00 7F FF 80 08 00 
    29)         9.3  Rx     00000802  8  00 00 00 7F FF 80 08 00 
    30)         9.8  Rx     00002901  8  FC 9A 00 00 FF FA 18 00 
    31)        10.0  Rx     00002902  8  FF C8 00 00 00 00 17 00 
    32)        10.9  Rx         0003  8  FA 12 FF 9F 00 00 00 00 
    33)        11.0  Rx         0005  8  00 00 00 00 00 00 00 00 
    34)        11.1  Rx     00000801  8  00 00 00 7F FF 80 08 00 
    35)        11.3  Rx     00000802  8  00 00 00 7F FF 80 08 00 
    36)        11.8  Rx     00002901  8  FC 9A 00 00 FF F9 18 00 
    37)        12.0  Rx     00002902  8  FF C8 00 00 00 02 17 00 
    38)        12.9  Rx         0003  8  FA 12 FF 9F 00 00 00 00 
    39)        13.0  Rx         0005  8  00 00 00 00 00 00 00 00 
    40)        13.1  Rx     00000801  8  00 00 00 7F FF 80 08 00 
    41)        13.3  Rx     00000802  8  00 00 00 7F FF 80 08 00 
    42)        13.8  Rx     00002901  8  FC 9A 00 00 FF FA 18 00 
    43)        14.0  Rx     00002902  8  FF C8 00 00 00 02 17 00 
    44)        14.9  Rx         0003  8  FA 12 FF 9F 00 00 00 00 
    45)        15.0  Rx         0005  8  00 00 00 00 00 00 00 00 
    46)        15.1  Rx     00000801  8  00 00 00 7F FF 80 08 00 
    47)        15.3  Rx     00000802  8  00 00 00 7F FF 80 08 00 
    48)        15.8  Rx     00002901  8  FC 9A 00 00 FF FC 18 00 
    49)        16.0  Rx     00002902  8  FF C8 00 00 00 02 17 00 
    50)        16.9  Rx         0003  8  FA 12 FF 9F 00 00 00 00 
    51)        17.0  Rx         0005  8  00 00 00 00 00 00 00 00 
    52)        17.1  Rx     00000801  8  00 00 00 7F FF 80 08 00 
    53)        17.3  Rx     00000802  8  00 00 00 7F FF 80 08 00 
    54)        17.9  Rx     00002901  8  FC 9A 00 00 FF FB 18 00 
    55)        18.0  Rx     00002902  8  FF C8 00 00 00 03 17 00 
    56)        18.8  Rx         0003  8  FA 12 FF 9F 00 00 00 00 
    57)        19.0  Rx         0005  8  00 00 00 00 00 00 00 00 
    58)        19.1  Rx     00000801  8  00 00 00 7F FF 80 08 00 
    59)        19.3  Rx     00000802  8  00 00 00 7F FF 80 08 00 
    60)        19.8  Rx     00002901  8  FC 9A 00 00 FF FA 18 00 
    61)        20.0  Rx     00002902  8  FF C8 00 00 00 01 17 00 
    62)        20.8  Rx         0003  8  FA 12 FF 9F 00 00 00 00 
    63)        21.0  Rx         0005  8  00 00 00 00 00 00 00 00 
    64)        21.1  Rx     00000801  8  00 00 00 7F FF 80 08 00 
    65)        21.3  Rx     00000802  8  00 00 00 7F FF 80 08 00 
    66)        21.9  Rx     00002901  8  FC 9A 00 00 FF F9 18 00 
    67)        22.0  Rx     00002902  8  FF C8 00 00 00 00 17 00 
    68)        22.9  Rx         0003  8  FA 12 FF 9F 00 00 00 00 
    69)        23.0  Rx         0005  8  00 00 00 00 00 00 00 00 
    70)        23.1  Rx     00000801  8  00 00 00 7F FF 80 08 00 
    71)        23.3  Rx     00000802  8  00 00 00 7F FF 80 08 00 
    72)        23.9  Rx     00002901  8  FC 9A 00 00 FF FA 18 00 
    73)        24.0  Rx     00002902  8  FF C8 00 00 00 01 17 00 
    74)        24.8  Rx         0003  8  FA 12 FF 9F 00 00 00 00 
    75)        25.0  Rx         0005  8  00 00 00 00 00 00 00 00 
    76)        25.1  Rx     00000801  8  00 00 00 7F FF 80 08 00 
    77)        25.3  Rx     00000802  8  00 00 00 7F FF 80 08 00 
    78)        25.8  Rx     00002901  8  FC 9A 00 00 FF FD 18 00 
    79)        26.0  Rx     00002902  8  FF C8 00 00 00 01 17 00 
    80)        26.9  Rx         0003  8  FA 12 FF 9F 00 00 00 00 
    81)        27.0  Rx         0005  8  00 00 00 00 00 00 00 00 
    82)        27.1  Rx     00000801  8  00 00 00 7F FF 80 08 00 
    83)        27.3  Rx     00000802  8  00 00 00 7F FF 80 08 00 
    84)        27.8  Rx     00002901  8  FC 9A 00 00 FF FB 18 00 
    85)        28.0  Rx     00002902  8  FF C8 00 00 00 00 17 00 
    86)        28.9  Rx         0003  8  FA 12 FF 9F 00 00 00 00 
    87)        29.0  Rx         0005  8  00 00 00 00 00 00 00 00 
    88)        29.2  Rx     00000801  8  00 00 00 7F FF 80 08 00 
    89)        29.3  Rx     00000802  8  00 00 00 7F FF 80 08 00 
    90)        29.8  Rx     00002901  8  FC 9A 00 00 FF FB 18 00 
    91)        30.0  Rx     00002902  8  FF C8 00 00 00 00 17 00 
    92)        30.9  Rx         0003  8  FA 12 FF 9F 00 00 00 00 
    93)        31.0  Rx         0005  8  00 00 00 00 00 00 00 00 
    94)        31.1  Rx     00000801  8  00 00 00 7F FF 80 08 00 
    95)        31.3  Rx     00000802  8  00 00 00 7F FF 80 08 00 
    96)        31.8  Rx     00002901  8  FC 9A 00 00 FF F9 18 00 
    97)        32.0  Rx     00002902  8  FF C8 00 00 00 00 17 00 
    98)        32.9  Rx         0003  8  FA 12 FF 9F 00 00 00 00 
    99)        33.0  Rx         0005  8  00 00 00 00 00 00 00 00 
   100)        33.1  Rx     00000801  8  00 00 00 7F FF 80 08 00 
   101)        33.3  Rx     00000802  8  00 00 00 7F FF 80 08 00 
   102)        33.9  Rx     00002901  8  FC 9A 00 00 FF FA 18 00 
   103)        34.0  Rx     00002902  8  FF C8 00 00 00 05 17 00 
   104)        34.9  Rx         0003  8  FA 12 FF 9F 00 00 00 00 
   105)        35.0  Rx         0005  8  00 00 00 00 00 00 00 00 
   106)        35.1  Rx     00000801  8  00 00 00 7F FF 80 08 00 
   107)        35.3  Rx     00000802  8  00 00 00 7F FF 80 08 00 
   108)        35.9  Rx     00002901  8  FC 9A 00 00 FF FD 18 00 
   109)        36.0  Rx     00002902  8  FF C8 00 00 00 01 17 00 
   110)        36.9  Rx         0003  8  FA 12 FF 9F 00 00 00 00 
   111)        37.0  Rx         0005  8  00 00 00 00 00 00 00 00 
   112)        37.1  Rx     00000801  8  00 00 00 7F FF 80 08 00 
   113)        37.3  Rx     00000802  8  00 00 00 7F FF 80 08 00 
   114)        37.9  Rx     00002901  8  FC 9A 00 00 FF FB 18 00 
   115)        38.0  Rx     00002902  8  FF C8 00 00 00 02 17 00 
   116)        38.8  Rx         0003  8  FA 12 FF 9F 00 00 00 00 
   117)        39.0  Rx         0005  8  00 00 00 00 00 00 00 00 
   118)        39.1  Rx     00000801  8  00 00 00 7F FF 80 08 00 
   119)        39.3  Rx     00000802  8  00 00 00 7F FF 80 08 00 
   120)        39.8  Rx     00002901  8  FC 9A 00 00 FF F9 18 00 
   121)        40.0  Rx     00002902  8  FF C8 00 00 00 01 17 00 
   122)        40.8  Rx         0003  8  FA 12 FF 9F 00 00 00 00 
   123)        41.0  Rx         0005  8  00 00 00 00 00 00 00 00 
   124)        41.1  Rx     00000801  8  00 00 00 7F FF 80 08 00 
   125)        41.3  Rx     00000802  8  00 00 00 7F FF 80 08 00 
   126)        41.8  Rx     00002901  8  FC 9A 00 00 FF F9 18 00 
   127)        42.0  Rx     00002902  8  FF C8 00 00 00 02 17 00 
   128)        42.9  Rx         0003  8  FA 12 FF 9F 00 00 00 00 
   129)        43.0  Rx         0005  8  00 00 00 00 00 00 00 00 
   130)        43.2  Rx     00000801  8  00 00 00 7F FF 80 08 00 
   131)        43.3  Rx     00000802  8  00 00 00 7F FF 80 08 00 
   132)        43.8  Rx     00002901  8  FC 9A 00 00 FF FB 18 00 
   133)        44.0  Rx     00002902  8  FF C8 00 00 00 02 17 00 
   134)        44.9  Rx         0003  8  FA 12 FF 9F 00 00 00 00 
   135)        45.0  Rx         0005  8  00 00 00 00 00 00 00 00 
   136)        45.1  Rx     00000801  8  00 00 00 7F FF 80 08 00 
   137)        45.3  Rx     00000802  8  00 00 00 7F FF 80 08 00 
   138)        45.8  Rx     00002901  8  FC 9A 00 00 FF FB 18 00 
   139)        46.0  Rx     00002902  8  FF C8 00 00 00 01 17 00 
   140)        46.9  Rx         0003  8  FA 12 FF 9F 00 00 00 00 
   141)        47.0  Rx         0005  8  00 00 00 00 00 00 00 00 
   142)        47.1  Rx     00000801  8  00 00 00 7F FF 80 08 00 
   143)        47.3  Rx     00000802  8  00 00 00 7F FF 80 08 00 
   144)        47.8  Rx     00002901  8  FC 9A 00 00 FF FD 18 00 
   145)        48.0  Rx     00002902  8  FF C8 00 00 00 02 17 00 
   146)        48.9  Rx         0003  8  FA 12 FF 9F 00 00 00 00 
   147)        49.0  Rx         0005  8  00 00 00 00 00 00 00 00 
   148)        49.1  Rx     00000801  8  00 00 00 7F FF 80 08 00 
   149)        49.3  Rx     00000802  8  00 00 00 7F FF 80 08 00 
   150)        49.8  Rx     00002901  8  FC 9A 00 00 FF F8 18 00 
   151)        50.0  Rx     00002902  8  FF C8 00 00 00 03 17 00 
   152)        50.9  Rx         0003  8  FA 12 FF 9F 00 00 00 00 
   153)        51.0  Rx         0005  8  00 00 00 00 00 00 00 00 
   154)        51.1  Rx     00000801  8  00 00 00 7F FF 80 08 00 
   155)        51.3  Rx     00000802  8  00 00 00 7F FF 80 08 00 
   156)        51.9  Rx     00002901  8  FC 9A 00 00 FF FA 18 00 
   157)        52.0  Rx     00002902  8  FF C8 00 00 00 03 17 00 
   158)        52.8  Rx         0003  8  FA 12 FF 9F 00 00 00 00 
   159)        53.0  Rx         0005  8  00 00 00 00 00 00 00 00 
   160)        53.1  Rx     00000801  8  00 00 00 7F FF 80 08 00 
   161)        53.3  Rx     00000802  8  00 00 00 7F FF 80 08 00 
   162)        53.8  Rx     00002901  8  FC 9A 00 00 FF FA 18 00 
   163)        54.0  Rx     00002902  8  FF C8 00 00 00 01 17 00 
   164)        54.8  Rx         0003  8  FA 12 FF 9F 00 00 00 00 
   165)        55.0  Rx         0005  8  00 00 00 00 00 00 00 00 
   166)        55.1  Rx     00000801  8  00 00 00 7F FF 80 08 00 
   167)        55.3  Rx     00000802  8  00 00 00 7F FF 80 08 00 
   168)        55.8  Rx     00002901  8  FC 9A 00 00 FF FA 18 00 
   169)        56.0  Rx     00002902  8  FF C8 00 00 00 01 17 00 
   170)        56.8  Rx         0003  8  FA 12 FF 9F 00 00 00 00 
   171)        57.0  Rx         0005  8  00 00 00 00 00 00 00 00 
   172)        57.1  Rx     00000801  8  00 00 00 7F FF 80 08 00 
   173)        57.3  Rx     00000802  8  00 00 00 7F FF 80 08 00 
   174)        57.8  Rx     00002901  8  FC 9A 00 00 FF FC 18 00 
   175)        58.0  Rx     00002902  8  FF C8 00 00 00 00 17 00 
   176)        58.9  Rx         0003  8  FA 12 FF 9F 00 00 00 00 
   177)        59.0  Rx         0005  8  00 00 00 00 00 00 00 00 
   178)        59.1  Rx     00000801  8  00 00 00 7F FF 80 08 00 
   179)        59.3  Rx     00000802  8  00 00 00 7F FF 80 08 00 
   180)        59.8  Rx     00002901  8  FC 9A 00 00 FF FC 18 00 
   181)        60.0  Rx     00002902  8  FF C8 00 00 00 01 17 00 
   182)        60.9  Rx         0003  8  FA 12 FF 9F 00 00 00 00 
   183)        61.0  Rx         0005  8  00 00 00 00 00 00 00 00 
   184)        61.1  Rx     00000801  8  00 00 00 7F FF 80 08 00 
   185)        61.3  Rx     00000802  8  00 00 00 7F FF 80 08 00 
   186)        61.8  Rx     00002901  8  FC 9A 00 00 FF FB 18 00 
   187)        62.0  Rx     00002902  8  FF C8 00 00 00 02 17 00 
   188)        62.9  Rx         0003  8  FA 12 FF 9F 00 00 00 00 
   189)        63.0  Rx         0005  8  00 00 00 00 00 00 00 00 
   190)        63.1  Rx     00000801  8  00 00 00 7F FF 80 08 00 
   191)        63.3  Rx     00000802  8  00 00 00 7F FF 80 08 00 
   192)        63.8  Rx     00002901  8  FC 9A 00 00 FF FC 18 00 
   193)        64.0  Rx     00002902  8  FF C8 00 00 00 03 17 00 
   194)        64.9  Rx         0003  8  FA 12 FF 9F 00 00 00 00 
   195)        65.0  Rx         0005  8  00 00 00 00 00 00 00 00 
   196)        65.1  Rx     00000801  8  00 00 00 7F FF 80 08 00 
   197)        65.3  Rx     00000802  8  00 00 00 7F FF 80 08 00 
   198)        65.8  Rx     00002901  8  FC 9A 00 00 FF F8 18 00 
   199)        66.0  Rx     00002902  8  FF C8 00 00 00 02 17 00 
   200)        66.9  Rx         0003  8  FA 12 FF 9F 00 00 00 00 
   201)        67.0  Rx         0005  8  00 00 00 00 00 00 00 00 
   202)        67.1  Rx     00000801  8  00 00 00 7F FF 80 08 00 
   203)        67.3  Rx     00000802  8  00 00 00 7F FF 80 08 00 
   204)        67.9  Rx     00002901  8  FC 9A 00 00 FF FB 18 00 
   205)        68.0  Rx     00002902  8  FF C8 00 00 00 00 17 00 
   206)        68.9  Rx         0003  8  FA 12 FF 9F 00 00 00 00 
   207)        69.0  Rx         0005  8  00 00 00 00 00 00 00 00 
   208)        69.1  Rx     00000801  8  00 00 00 7F FF 80 08 00 
   209)        69.3  Rx     00000802  8  00 00 00 7F FF 80 08 00 
   210)        69.9  Rx     00002901  8  FC 9A 00 00 FF F9 18 00 
   211)        70.0  Rx     00002902  8  FF C8 00 00 00 01 17 00 
   212)        70.8  Rx         0003  8  FA 12 FF 9F 00 00 00 00 
   213)        71.0  Rx         0005  8  00 00 00 00 00 00 00 00 
   214)        71.1  Rx     00000801  8  00 00 00 7F FF 80 08 00 
   215)        71.3  Rx     00000802  8  00 00 00 7F FF 80 08 00 
   216)        71.8  Rx     00002901  8  FC 9A 00 00 FF F8 18 00 
   217)        72.0  Rx     00002902  8  FF C8 00 00 00 01 17 00 
   218)        72.8  Rx         0003  8  FA 12 FF 9F 00 00 00 00 
   219)        73.0  Rx         0005  8  00 00 00 00 00 00 00 00 
   220)        73.1  Rx     00000801  8  00 00 00 7F FF 80 08 00 
   221)        73.3  Rx     00000802  8  00 00 00 7F FF 80 08 00 
   222)        73.8  Rx     00002901  8  FC 9A 00 00 FF F8 18 00 
   223)        74.0  Rx     00002902  8  FF C8 00 00 00 00 17 00 
   224)        74.9  Rx         0003  8  FA 12 FF 9F 00 00 00 00 
   225)        75.0  Rx         0005  8  00 00 00 00 00 00 00 00 
   226)        75.2  Rx     00000801  8  00 00 00 7F FF 80 08 00 
   227)        75.3  Rx     00000802  8  00 00 00 7F FF 80 08 00 
   228)        75.8  Rx     00002901  8  FC 9A 00 00 FF FB 18 00 
   229)        76.0  Rx     00002902  8  FF C8 00 00 00 00 17 00 
   230)        76.9  Rx         0003  8  FA 12 FF 9F 00 00 00 00 
   231)        77.0  Rx         0005  8  00 00 00 00 00 00 00 00 
   232)        77.2  Rx     00000801  8  00 00 00 7F FF 80 08 00 
   233)        77.3  Rx     00000802  8  00 00 00 7F FF 80 08 00 
   234)        77.8  Rx     00002901  8  FC 9A 00 00 FF FB 18 00 
   235)        78.0  Rx     00002902  8  FF C8 00 00 00 01 17 00 
   236)        78.9  Rx         0003  8  FA 12 FF 9F 00 00 00 00 
   237)        79.0  Rx         0005  8  00 00 00 00 00 00 00 00 
   238)        79.1  Rx     00000801  8  00 00 00 7F FF 80 08 00 
   239)        79.3  Rx     00000802  8  00 00 00 7F FF 80 08 00 
   240)        79.8  Rx     00002901  8  FC 9A 00 00 FF FB 18 00 
   241)        80.0  Rx     00002902  8  FF C8 00 00 00 01 17 00 
   242)        80.9  Rx         0003  8  FA 12 FF 9F 00 00 00 00 
   243)        81.0  Rx         0005  8  00 00 00 00 00 00 00 00 
   244)        81.1  Rx     00000801  8  00 00 00 7F FF 80 08 00 
   245)        81.3  Rx     00000802  8  00 00 00 7F FF 80 08 00 
   246)        81.8  Rx     00002901  8  FC 9A 00 00 FF FA 18 00 
   247)        82.0  Rx     00002902  8  FF C8 00 00 00 02 17 00 
   248)        82.9  Rx         0003  8  FA 12 FF 9F 00 00 00 00 
   249)        83.0  Rx         0005  8  00 00 00 00 00 00 00 00 
   250)        83.1  Rx     00000801  8  00 00 00 7F FF 80 08 00 
   251)        83.3  Rx     00000802  8  00 00 00 7F FF 80 08 00 
   252)        83.9  Rx     00002901  8  FC 9A 00 00 FF FC 18 00 
   253)        84.0  Rx     00002902  8  FF C8 00 00 00 03 17 00 
   254)        84.9  Rx         0003  8  FA 12 FF 9F 00 00 00 00 
   255)        85.0  Rx         0005  8  00 00 00 00 00 00 00 00 
   256)        85.1  Rx     00000801  8  00 00 00 7F FF 80 08 00 
   257)        85.3  Rx     00000802  8  00 00 00 7F FF 80 08 00 
   258)        85.8  Rx     00002901  8  FC 9A 00 00 FF FA 18 00 
   259)        86.0  Rx     00002902  8  FF C8 00 00 00 02 17 00 
   260)        86.8  Rx         0003  8  FA 12 FF 9F 00 00 00 00 
   261)        87.0  Rx         0005  8  00 00 00 00 00 00 00 00 
   262)        87.1  Rx     00000801  8  00 00 00 7F FF 80 08 00 
   263)        87.3  Rx     00000802  8  00 00 00 7F FF 80 08 00 
   264)        87.8  Rx     00002901  8  FC 9A 00 00 FF FB 18 00 
   265)        88.0  Rx     00002902  8  FF C8 00 00 00 00 17 00 
   266)        88.8  Rx         0003  8  FA 12 FF 9F 00 00 00 00 
   267)        89.0  Rx         0005  8  00 00 00 00 00 00 00 00 
   268)        89.1  Rx     00000801  8  00 00 00 7F FF 80 08 00 
   269)        89.3  Rx     00000802  8  00 00 00 7F FF 80 08 00 
   270)        89.8  Rx     00002901  8  FC 9A 00 00 FF FD 18 00 
   271)        90.0  Rx     00002902  8  FF C8 00 00 00 01 17 00 
   272)        90.9  Rx         0003  8  FA 12 FF 9F 00 00 00 00 
   273)        91.0  Rx         0005  8  00 00 00 00 00 00 00 00 
   274)        91.2  Rx     00000801  8  00 00 00 7F FF 80 08 00 
   275)        91.3  Rx     00000802  8  00 00 00 7F FF 80 08 00 
   276)        91.8  Rx     00002901  8  FC 9A 00 00 FF FA 18 00 
   277)        92.0  Rx     00002902  8  FF C8 00 00 00 00 17 00 
   278)        92.9  Rx         0003  8  FA 12 FF 9F 00 00 00 00 
   279)        93.0  Rx         0005  8  00 00 00 00 00 00 00 00 
   280)        93.1  Rx     00000801  8  00 00 00 7F FF 80 08 00 
   281)        93.3  Rx     00000802  8  00 00 00 7F FF 80 08 00 
   282)        93.8  Rx     00002901  8  FC 9A 00 00 FF F8 18 00 
   283)        94.0  Rx     00002902  8  FF C8 00 00 00 03 17 00 
   284)        94.9  Rx         0003  8  FA 12 FF 9F 00 00 00 00 
   285)        95.0  Rx         0005  8  00 00 00 00 00 00 00 00 
   286)        95.1  Rx     00000801  8  00 00 00 7F FF 80 08 00 
   287)        95.3  Rx     00000802  8  00 00 00 7F FF 80 08 00 
   288)        95.8  Rx     00002901  8  FC 9A 00 00 FF F9 18 00 
   289)        96.0  Rx     00002902  8  FF C8 00 00 00 02 17 00 
   290)        96.9  Rx         0003  8  FA 12 FF 9F 00 00 00 00 
   291)        97.0  Rx         0005  8  00 00 00 00 00 00 00 00 
   292)        97.1  Rx     00000801  8  00 00 00 7F FF 80 08 00 
   293)        97.3  Rx     00000802  8  00 00 00 7F FF 80 08 00 
   294)        97.8  Rx     00002901  8  FC 9A 00 00 FF FA 18 00 
   295)        98.0  Rx     00002902  8  FF C8 00 00 00 00 17 00 
   296)        98.9  Rx         0003  8  FA 12 FF 9F 00 00 00 00 
   297)        99.0  Rx         0005  8  00 00 00 00 00 00 00 00 
   298)        99.1  Rx     00000801  8  00 00 00 7F FF 80 08 00 
   299)        99.3  Rx     00000802  8  00 00 00 7F FF 80 08 00 
   300)        99.9  Rx     00002901  8  FC 9A 00 00 FF F9 18 00 
   301)       100.0  Rx     00002902  8  FF C8 00 00 00 01 17 00 
   302)       100.8  Rx         0003  8  FA 12 FF 9F 00 00 00 00 
   303)       101.0  Rx         0005  8  00 00 00 00 00 00 00 00 
   304)       101.1  Rx     00000801  8  00 00 00 7F FF 80 08 00 
   305)       101.3  Rx     00000802  8  00 00 00 7F FF 80 08 00 
   306)       101.8  Rx     00002901  8  FC 9A 00 00 FF FC 18 00 
   307)       102.0  Rx     00002902  8  FF C8 00 00 00 00 17 00 
   308)       102.8  Rx         0003  8  FA 12 FF 9F 00 00 00 00 
   309)       103.0  Rx         0005  8  00 00 00 00 00 00 00 00 
   310)       103.1  Rx     00000801  8  00 00 00 7F FF 80 08 00 
   311)       103.3  Rx     00000802  8  00 00 00 7F FF 80 08 00 
   312)       103.9  Rx     00002901  8  FC 9A 00 00 FF F9 18 00 
   313)       104.0  Rx     00002902  8  FF C8 00 00 00 03 17 00 
   314)       104.8  Rx         0003  8  FA 12 FF 9F 00 00 00 00 
   315)       105.0  Rx         0005  8  00 00 00 00 00 00 00 00 
   316)       105.1  Rx     00000801  8  00 00 00 7F FF 80 08 00 
   317)       105.3  Rx     00000802  8  00 00 00 7F FF 80 08 00 
   318)       105.8  Rx     00002901  8  FC 9A 00 00 FF FA 18 00 
   319)       106.0  Rx     00002902  8  FF C8 00 00 00 01 17 00 
   320)       106.9  Rx         0003  8  FA 12 FF 9F 00 00 00 00 
   321)       107.0  Rx         0005  8  00 00 00 00 00 00 00 00 
   322)       107.1  Rx     00000801  8  00 00 00 7F FF 80 08 00 
   323)       107.3  Rx     00000802  8  00 00 00 7F FF 80 08 00 
   324)       107.8  Rx     00002901  8  FC 9A 00 00 FF F9 18 00 
   325)       108.0  Rx     00002902  8  FF C8 00 00 00 00 17 00 
   326)       108.9  Rx         0003  8  FA 12 FF 9F 00 00 00 00 
   327)       109.0  Rx         0005  8  00 00 00 00 00 00 00 00 
   328)       109.1  Rx     00000801  8  00 00 00 7F FF 80 08 00 
   329)       109.3  Rx     00000802  8  00 00 00 7F FF 80 08 00 
   330)       109.8  Rx     00002901  8  FC 9A 00 00 FF FB 18 00 
   331)       110.0  Rx     00002902  8  FF C8 00 00 00 02 17 00 
   332)       110.9  Rx         0003  8  FA 12 FF 9F 00 00 00 00 
   333)       111.0  Rx         0005  8  00 00 00 00 00 00 00 00 
   334)       111.1  Rx     00000801  8  00 00 00 7F FF 80 08 00 
   335)       111.3  Rx     00000802  8  00 00 00 7F FF 80 08 00 
   336)       111.8  Rx     00002901  8  FC 9A 00 00 FF FD 18 00 
   337)       112.0  Rx     00002902  8  FF C8 00 00 00 01 17 00 
   338)       112.9  Rx         0003  8  FA 12 FF 9F 00 00 00 00 
   339)       113.0  Rx         0005  8  00 00 00 00 00 00 00 00 
   340)       113.1  Rx     00000801  8  00 00 00 7F FF 80 08 00 
   341)       113.3  Rx     00000802  8  00 00 00 7F FF 80 08 00 
   342)       113.8  Rx     00002901  8  FC 9A 00 00 FF FA 18 00 
   343)       114.0  Rx     00002902  8  FF C8 00 00 00 02 17 00 
   344)       114.9  Rx         0003  8  FA 12 FF 9F 00 00 00 00 
   345)       115.0  Rx         0005  8  00 00 00 00 00 00 00 00 
   346)       115.1  Rx     00000801  8  00 00 00 7F FF 80 08 00 
   347)       115.3  Rx     00000802  8  00 00 00 7F FF 80 08 00 
   348)       115.9  Rx     00002901  8  FC 9A 00 00 FF F9 18 00 
   349)       116.0  Rx     00002902  8  FF C8 00 00 00 00 17 00 
   350)       116.9  Rx         0003  8  FA 12 FF 9F 00 00 00 00 
   351)       117.0  Rx         0005  8  00 00 00 00 00 00 00 00 
   352)       117.1  Rx     00000801  8  00 00 00 7F FF 80 08 00 
   353)       117.3  Rx     00000802  8  00 00 00 7F FF 80 08 00 
   354)       117.9  Rx     00002901  8  FC 9A 00 00 FF FB 18 00 
   355)       118.0  Rx     00002902  8  FF C8 00 00 00 00 17 00 
   356)       118.9  Rx         0003  8  FA 12 FF 9F 00 00 00 00 
   357)       119.0  Rx         0005  8  00 00 00 00 00 00 00 00 
   358)       119.1  Rx     00000801  8  00 00 00 7F FF 80 08 00 
   359)       119.3  Rx     00000802  8  00 00 00 7F FF 80 08 00 
   360)       119.8  Rx     00002901  8  FC 9A 00 00 FF FA 18 00 
   361)       120.0  Rx     00002902  8  FF C8 00 00 00 01 17 00 
   362)       120.8  Rx         0003  8  FA 12 FF 9F 00 00 00 00 
   363)       121.0  Rx         0005  8  00 00 00 00 00 00 00 00 
   364)       121.1  Rx     00000801  8  00 00 00 7F FF 80 08 00 
   365)       121.3  Rx     00000802  8  00 00 00 7F FF 80 08 00 
   366)       121.8  Rx     00002901  8  FC 9A 00 00 FF FD 18 00 
   367)       122.0  Rx     00002902  8  FF C8 00 00 00 00 17 00 
   368)       122.9  Rx         0003  8  FA 12 FF 9F 00 00 00 00 
   369)       123.0  Rx         0005  8  00 00 00 00 00 00 00 00 
   370)       123.1  Rx     00000801  8  00 00 00 7F FF 80 08 00 
   371)       123.3  Rx     00000802  8  00 00 00 7F FF 80 08 00 
