;$FILEVERSION=1.1
;$STARTTIME=45801.8745866667
;
;   Start time: 5/24/2025 20:59:24.288.0
;   Generated by PCAN-View v5.3.2.952
;
;   Message Number
;   |         Time Offset (ms)
;   |         |        Type
;   |         |        |        ID (hex)
;   |         |        |        |     Data Length
;   |         |        |        |     |   Data Bytes (hex) ...
;   |         |        |        |     |   |
;---+--   ----+----  --+--  ----+---  +  -+ -- -- -- -- -- -- --
     1)         0.1  Rx     00002902  8  00 64 00 00 FF F8 20 00 
     2)         0.9  Rx         0003  8  F9 4F 00 AE F9 4F 00 AE 
     3)         1.0  Rx         0004  8  00 00 00 00 00 00 00 00 
     4)         1.1  Rx         0005  8  00 00 00 00 00 00 01 76 
     5)         1.3  Rx     00000801  8  00 00 00 7F FF 80 08 00 
     6)         1.4  Rx     00000802  8  00 00 00 7F FF 80 08 00 
     7)         1.9  Rx     00002901  8  FC 2A 00 00 00 04 20 00 
     8)         2.1  Rx     00002902  8  00 64 00 00 FF FB 20 00 
     9)         3.9  Rx     00002901  8  FC 2A 00 00 00 05 20 00 
    10)         4.1  Rx     00002902  8  00 64 00 00 FF F9 20 00 
    11)         4.9  Rx         0003  8  F9 4F 00 AE F9 4F 00 AE 
    12)         5.0  Rx         0004  8  00 00 00 00 00 00 00 00 
    13)         5.1  Rx         0005  8  00 00 00 00 00 00 01 76 
    14)         5.3  Rx     00000801  8  00 00 00 7F FF 80 08 00 
    15)         5.4  Rx     00000802  8  00 00 00 7F FF 80 08 00 
    16)         5.9  Rx     00002901  8  FC 2A 00 00 00 04 20 00 
    17)         6.1  Rx     00002902  8  00 64 00 00 FF FA 20 00 
    18)         7.9  Rx     00002901  8  FC 2A 00 00 00 02 20 00 
    19)         8.1  Rx     00002902  8  00 64 00 00 FF F8 20 00 
    20)         8.9  Rx         0003  8  F9 4F 00 AE F9 4F 00 AE 
    21)         9.0  Rx         0004  8  00 00 00 00 00 00 00 00 
    22)         9.1  Rx         0005  8  00 00 00 00 00 00 01 76 
    23)         9.3  Rx     00000801  8  00 00 00 7F FF 80 08 00 
    24)         9.4  Rx     00000802  8  00 00 00 7F FF 80 08 00 
    25)        10.0  Rx     00002901  8  FC 2A 00 00 00 03 20 00 
    26)        10.1  Rx     00002902  8  00 64 00 00 FF FB 20 00 
    27)        11.9  Rx     00002901  8  FC 2A 00 00 00 03 20 00 
    28)        12.1  Rx     00002902  8  00 64 00 00 FF F8 20 00 
    29)        12.9  Rx         0003  8  F9 4F 00 AE F9 4F 00 AE 
    30)        13.0  Rx         0004  8  00 00 00 00 00 00 00 00 
    31)        13.2  Rx         0005  8  00 00 00 00 00 00 01 77 
    32)        13.3  Rx     00000801  8  00 00 00 7F FF 80 08 00 
    33)        13.4  Rx     00000802  8  00 00 00 7F FF 80 08 00 
    34)        13.9  Rx     00002901  8  FC 2A 00 00 00 03 20 00 
    35)        14.1  Rx     00002902  8  00 64 00 00 FF FB 20 00 
    36)        15.9  Rx     00002901  8  FC 2A 00 00 00 01 20 00 
    37)        16.1  Rx     00002902  8  00 64 00 00 FF FA 20 00 
    38)        16.9  Rx         0003  8  F9 4F 00 AE F9 4F 00 AE 
    39)        17.0  Rx         0004  8  00 00 00 00 00 00 00 00 
    40)        17.2  Rx         0005  8  00 00 00 00 00 00 01 76 
    41)        17.3  Rx     00000801  8  00 00 00 7F FF 80 08 00 
    42)        17.5  Rx     00000802  8  00 00 00 7F FF 80 08 00 
    43)        17.9  Rx     00002901  8  FC 2A 00 00 00 03 20 00 
    44)        18.1  Rx     00002902  8  00 64 00 00 FF FA 21 00 
    45)        19.9  Rx     00002901  8  FC 2A 00 00 00 01 20 00 
    46)        20.1  Rx     00002902  8  00 64 00 00 FF FB 21 00 
    47)        20.9  Rx         0003  8  F9 4F 00 AE F9 4F 00 AE 
    48)        21.0  Rx         0004  8  00 00 00 00 00 00 00 00 
    49)        21.1  Rx         0005  8  00 00 00 00 00 00 01 78 
    50)        21.3  Rx     00000801  8  00 00 00 7F FF 80 08 00 
    51)        21.4  Rx     00000802  8  00 00 00 7F FF 80 08 00 
    52)        21.9  Rx     00002901  8  FC 2A 00 00 00 01 20 00 
    53)        22.1  Rx     00002902  8  00 64 00 00 FF F7 21 00 
    54)        23.9  Rx     00002901  8  FC 2A 00 00 00 00 20 00 
    55)        24.1  Rx     00002902  8  00 64 00 00 FF FD 21 00 
    56)        24.9  Rx         0003  8  F9 4F 00 AE F9 4F 00 AE 
    57)        25.0  Rx         0004  8  00 00 00 00 00 00 00 00 
    58)        25.1  Rx         0005  8  00 00 00 00 00 00 01 78 
    59)        25.3  Rx     00000801  8  00 00 00 7F FF 80 08 00 
    60)        25.4  Rx     00000802  8  00 00 00 7F FF 80 08 00 
    61)        26.0  Rx     00002901  8  FC 2A 00 00 00 03 20 00 
    62)        26.1  Rx     00002902  8  00 64 00 00 FF FC 21 00 
    63)        27.9  Rx     00002901  8  FC 2A 00 00 00 01 20 00 
    64)        28.1  Rx     00002902  8  00 64 00 00 FF FD 20 00 
    65)        28.9  Rx         0003  8  F9 4F 00 AE F9 4F 00 AE 
    66)        29.0  Rx         0004  8  00 00 00 00 00 00 00 00 
    67)        29.1  Rx         0005  8  00 00 00 00 00 00 01 78 
    68)        29.3  Rx     00000801  8  00 00 00 7F FF 80 08 00 
    69)        29.4  Rx     00000802  8  00 00 00 7F FF 80 08 00 
    70)        29.9  Rx     00002901  8  FC 2A 00 00 00 06 20 00 
    71)        30.1  Rx     00002902  8  00 64 00 00 FF FC 20 00 
    72)        31.9  Rx     00002901  8  FC 2A 00 00 00 00 20 00 
    73)        32.1  Rx     00002902  8  00 64 00 00 FF F9 21 00 
    74)        32.9  Rx         0003  8  F9 4F 00 AE F9 4F 00 AE 
    75)        33.0  Rx         0004  8  00 00 00 00 00 00 00 00 
    76)        33.1  Rx         0005  8  00 00 00 00 00 00 01 77 
    77)        33.3  Rx     00000801  8  00 00 00 7F FF 80 08 00 
    78)        33.4  Rx     00000802  8  00 00 00 7F FF 80 08 00 
    79)        33.9  Rx     00002901  8  FC 2A 00 00 00 00 20 00 
    80)        34.1  Rx     00002902  8  00 64 00 00 FF FB 21 00 
    81)        35.9  Rx     00002901  8  FC 2A 00 00 00 00 20 00 
    82)        36.1  Rx     00002902  8  00 64 00 00 FF FD 21 00 
    83)        36.9  Rx         0003  8  F9 4F 00 AE F9 4F 00 AE 
    84)        37.0  Rx         0004  8  00 00 00 00 00 00 00 00 
    85)        37.1  Rx         0005  8  00 00 00 00 00 00 01 76 
    86)        37.3  Rx     00000801  8  00 00 00 7F FF 80 08 00 
    87)        37.4  Rx     00000802  8  00 00 00 7F FF 80 08 00 
    88)        37.9  Rx     00002901  8  FC 2A 00 00 00 02 20 00 
    89)        38.1  Rx     00002902  8  00 64 00 00 FF FB 21 00 
    90)        39.9  Rx     00002901  8  FC 2A 00 00 00 02 20 00 
    91)        40.1  Rx     00002902  8  00 64 00 00 FF FD 21 00 
    92)        40.9  Rx         0003  8  F9 4F 00 AE F9 4F 00 AE 
    93)        41.0  Rx         0004  8  00 00 00 00 00 00 00 00 
    94)        41.1  Rx         0005  8  00 00 00 00 00 00 01 77 
    95)        41.3  Rx     00000801  8  00 00 00 7F FF 80 08 00 
    96)        41.4  Rx     00000802  8  00 00 00 7F FF 80 08 00 
    97)        42.0  Rx     00002901  8  FC 2A 00 00 00 05 20 00 
    98)        42.1  Rx     00002902  8  00 64 00 00 FF FB 21 00 
    99)        43.9  Rx     00002901  8  FC 2A 00 00 00 02 20 00 
   100)        44.1  Rx     00002902  8  00 64 00 00 FF FB 20 00 
   101)        44.9  Rx         0003  8  F9 4F 00 AE F9 4F 00 AE 
   102)        45.0  Rx         0004  8  00 00 00 00 00 00 00 00 
   103)        45.2  Rx         0005  8  00 00 00 00 00 00 01 77 
   104)        45.3  Rx     00000801  8  00 00 00 7F FF 80 08 00 
   105)        45.4  Rx     00000802  8  00 00 00 7F FF 80 08 00 
   106)        45.9  Rx     00002901  8  FC 2A 00 00 00 00 20 00 
   107)        46.1  Rx     00002902  8  00 64 00 00 FF FB 21 00 
   108)        47.9  Rx     00002901  8  FC 2A 00 00 00 00 20 00 
   109)        48.1  Rx     00002902  8  00 64 00 00 FF F8 21 00 
   110)        48.9  Rx         0003  8  F9 4F 00 AE F9 4F 00 AE 
   111)        49.0  Rx         0004  8  00 00 00 00 00 00 00 00 
   112)        49.2  Rx         0005  8  00 00 00 00 00 00 01 77 
   113)        49.3  Rx     00000801  8  00 00 00 7F FF 80 08 00 
   114)        49.4  Rx     00000802  8  00 00 00 7F FF 80 08 00 
   115)        49.9  Rx     00002901  8  FC 2A 00 00 00 00 20 00 
   116)        50.1  Rx     00002902  8  00 64 00 00 FF FB 20 00 
   117)        51.9  Rx     00002901  8  FC 2A 00 00 00 01 20 00 
   118)        52.1  Rx     00002902  8  00 64 00 00 FF F7 20 00 
   119)        52.9  Rx         0003  8  F9 4F 00 AE F9 4F 00 AE 
   120)        53.0  Rx         0004  8  00 00 00 00 00 00 00 00 
   121)        53.1  Rx         0005  8  00 00 00 00 00 00 01 76 
   122)        53.3  Rx     00000801  8  00 00 00 7F FF 80 08 00 
   123)        53.4  Rx     00000802  8  00 00 00 7F FF 80 08 00 
   124)        53.9  Rx     00002901  8  FC 2A 00 00 00 01 20 00 
   125)        54.1  Rx     00002902  8  00 64 00 00 FF FB 20 00 
   126)        55.9  Rx     00002901  8  FC 2A 00 00 00 03 20 00 
   127)        56.1  Rx     00002902  8  00 64 00 00 FF FB 20 00 
   128)        56.9  Rx         0003  8  F9 4F 00 AE F9 4F 00 AE 
   129)        57.0  Rx         0004  8  00 00 00 00 00 00 00 00 
   130)        57.1  Rx         0005  8  00 00 00 00 00 00 01 78 
   131)        57.3  Rx     00000801  8  00 00 00 7F FF 80 08 00 
   132)        57.4  Rx     00000802  8  00 00 00 7F FF 80 08 00 
   133)        57.9  Rx     00002901  8  FC 2A 00 00 00 03 21 00 
   134)        58.1  Rx     00002902  8  00 64 00 00 FF FB 20 00 
   135)        59.9  Rx     00002901  8  FC 2A 00 00 00 02 20 00 
   136)        60.1  Rx     00002902  8  00 64 00 00 FF FE 20 00 
   137)        60.9  Rx         0003  8  F9 4F 00 AE F9 4F 00 AE 
   138)        61.0  Rx         0004  8  00 00 00 00 00 00 00 00 
   139)        61.1  Rx         0005  8  00 00 00 00 00 00 01 77 
   140)        61.3  Rx     00000801  8  00 00 00 7F FF 80 08 00 
   141)        61.4  Rx     00000802  8  00 00 00 7F FF 80 08 00 
   142)        61.9  Rx     00002901  8  FC 2A 00 00 00 01 20 00 
   143)        62.0  Rx     00002902  8  00 64 00 00 FF FD 20 00 
   144)        63.9  Rx     00002901  8  FC 2A 00 00 00 02 20 00 
   145)        64.1  Rx     00002902  8  00 64 00 00 FF FE 20 00 
   146)        64.9  Rx         0003  8  F9 4F 00 AE F9 4F 00 AE 
   147)        65.0  Rx         0004  8  00 00 00 00 00 00 00 00 
   148)        65.1  Rx         0005  8  00 00 00 00 00 00 01 76 
   149)        65.3  Rx     00000801  8  00 00 00 7F FF 80 08 00 
   150)        65.4  Rx     00000802  8  00 00 00 7F FF 80 08 00 
   151)        65.9  Rx     00002901  8  FC 2A 00 00 00 00 20 00 
   152)        66.1  Rx     00002902  8  00 64 00 00 FF FE 20 00 
   153)        67.9  Rx     00002901  8  FC 2A 00 00 00 03 20 00 
   154)        68.1  Rx     00002902  8  00 64 00 00 FF FC 20 00 
   155)        68.9  Rx         0003  8  F9 4F 00 AE F9 4F 00 AE 
   156)        69.0  Rx         0004  8  00 00 00 00 00 00 00 00 
   157)        69.1  Rx         0005  8  00 00 00 00 00 00 01 76 
   158)        69.3  Rx     00000801  8  00 00 00 7F FF 80 08 00 
   159)        69.4  Rx     00000802  8  00 00 00 7F FF 80 08 00 
   160)        69.9  Rx     00002901  8  FC 2A 00 00 00 04 20 00 
   161)        70.1  Rx     00002902  8  00 64 00 00 FF FD 20 00 
   162)        71.9  Rx     00002901  8  FC 2A 00 00 00 00 20 00 
   163)        72.1  Rx     00002902  8  00 64 00 00 FF F8 20 00 
   164)        72.9  Rx         0003  8  F9 4F 00 AE F9 4F 00 AE 
   165)        73.0  Rx         0004  8  00 00 00 00 00 00 00 00 
   166)        73.1  Rx         0005  8  00 00 00 00 00 00 01 77 
   167)        73.3  Rx     00000801  8  00 00 00 7F FF 80 08 00 
   168)        73.4  Rx     00000802  8  00 00 00 7F FF 80 08 00 
   169)        73.9  Rx     00002901  8  FC 2A 00 00 00 04 20 00 
   170)        74.1  Rx     00002902  8  00 64 00 00 FF F7 20 00 
   171)        76.0  Rx     00002901  8  FC 2A 00 00 00 01 20 00 
   172)        76.1  Rx     00002902  8  00 64 00 00 FF FB 20 00 
   173)        76.9  Rx         0003  8  F9 4F 00 AE F9 4F 00 AE 
   174)        77.0  Rx         0004  8  00 00 00 00 00 00 00 00 
   175)        77.1  Rx         0005  8  00 00 00 00 00 00 01 76 
   176)        77.3  Rx     00000801  8  00 00 00 7F FF 80 08 00 
   177)        77.4  Rx     00000802  8  00 00 00 7F FF 80 08 00 
   178)        77.9  Rx     00002901  8  FC 2A 00 00 00 02 20 00 
   179)        78.1  Rx     00002902  8  00 64 00 00 FF FC 20 00 
   180)        79.9  Rx     00002901  8  FC 2A 00 00 00 02 20 00 
   181)        80.1  Rx     00002902  8  00 64 00 00 FF F9 20 00 
   182)        80.9  Rx         0003  8  F9 4F 00 AE F9 4F 00 AE 
   183)        81.0  Rx         0004  8  00 00 00 00 00 00 00 00 
   184)        81.1  Rx         0005  8  00 00 00 00 00 00 01 76 
   185)        81.3  Rx     00000801  8  00 00 00 7F FF 80 08 00 
   186)        81.4  Rx     00000802  8  00 00 00 7F FF 80 08 00 
   187)        81.9  Rx     00002901  8  FC 2A 00 00 00 05 20 00 
   188)        82.1  Rx     00002902  8  00 64 00 00 FF FC 20 00 
   189)        83.9  Rx     00002901  8  FC 2A 00 00 00 01 20 00 
   190)        84.1  Rx     00002902  8  00 64 00 00 FF F9 20 00 
   191)        84.9  Rx         0003  8  F9 4F 00 AE F9 4F 00 AE 
   192)        85.0  Rx         0004  8  00 00 00 00 00 00 00 00 
   193)        85.1  Rx         0005  8  00 00 00 00 00 00 01 78 
   194)        85.3  Rx     00000801  8  00 00 00 7F FF 80 08 00 
   195)        85.4  Rx     00000802  8  00 00 00 7F FF 80 08 00 
   196)        85.9  Rx     00002901  8  FC 2A 00 00 00 03 20 00 
   197)        86.1  Rx     00002902  8  00 64 00 00 FF FC 20 00 
   198)        87.9  Rx     00002901  8  FC 2A 00 00 FF FF 20 00 
   199)        88.1  Rx     00002902  8  00 64 00 00 FF FD 20 00 
   200)        88.9  Rx         0003  8  F9 4F 00 AE F9 4F 00 AE 
   201)        89.0  Rx         0004  8  00 00 00 00 00 00 00 00 
   202)        89.1  Rx         0005  8  00 00 00 00 00 00 01 77 
   203)        89.3  Rx     00000801  8  00 00 00 7F FF 80 08 00 
   204)        89.4  Rx     00000802  8  00 00 00 7F FF 80 08 00 
   205)        89.9  Rx     00002901  8  FC 2A 00 00 00 05 20 00 
   206)        90.1  Rx     00002902  8  00 64 00 00 FF FD 20 00 
   207)        91.9  Rx     00002901  8  FC 2A 00 00 00 02 20 00 
   208)        92.1  Rx     00002902  8  00 64 00 00 FF F7 20 00 
   209)        92.9  Rx         0003  8  F9 4F 00 AE F9 4F 00 AE 
   210)        93.0  Rx         0004  8  00 00 00 00 00 00 00 00 
   211)        93.1  Rx         0005  8  00 00 00 00 00 00 01 77 
   212)        93.3  Rx     00000801  8  00 00 00 7F FF 80 08 00 
   213)        93.4  Rx     00000802  8  00 00 00 7F FF 80 08 00 
   214)        93.9  Rx     00002901  8  FC 2A 00 00 00 02 20 00 
   215)        94.1  Rx     00002902  8  00 64 00 00 FF FE 20 00 
   216)        95.9  Rx     00002901  8  FC 2A 00 00 00 02 20 00 
   217)        96.1  Rx     00002902  8  00 64 00 00 FF FA 20 00 
   218)        96.9  Rx         0003  8  F9 4F 00 AE F9 4F 00 AE 
   219)        97.0  Rx         0004  8  00 00 00 00 00 00 00 00 
   220)        97.1  Rx         0005  8  00 00 00 00 00 00 01 77 
   221)        97.3  Rx     00000801  8  00 00 00 7F FF 80 08 00 
   222)        97.5  Rx     00000802  8  00 00 00 7F FF 80 08 00 
   223)        97.9  Rx     00002901  8  FC 2A 00 00 00 03 20 00 
   224)        98.1  Rx     00002902  8  00 64 00 00 FF FB 20 00 
   225)        99.9  Rx     00002901  8  FC 2A 00 00 00 01 20 00 
   226)       100.1  Rx     00002902  8  00 64 00 00 FF FD 20 00 
   227)       100.9  Rx         0003  8  F9 4F 00 AE F9 4F 00 AE 
   228)       101.0  Rx         0004  8  00 00 00 00 00 00 00 00 
   229)       101.1  Rx         0005  8  00 00 00 00 00 00 01 76 
   230)       101.3  Rx     00000801  8  00 00 00 7F FF 80 08 00 
   231)       101.4  Rx     00000802  8  00 00 00 7F FF 80 08 00 
   232)       101.9  Rx     00002901  8  FC 2A 00 00 00 02 20 00 
   233)       102.1  Rx     00002902  8  00 64 00 00 FF FA 20 00 
   234)       103.9  Rx     00002901  8  FC 2A 00 00 00 01 20 00 
   235)       104.1  Rx     00002902  8  00 64 00 00 FF F8 20 00 
   236)       104.9  Rx         0003  8  F9 4F 00 AE F9 4F 00 AE 
   237)       105.0  Rx         0004  8  00 00 00 00 00 00 00 00 
   238)       105.1  Rx         0005  8  00 00 00 00 00 00 01 77 
   239)       105.3  Rx     00000801  8  00 00 00 7F FF 80 08 00 
   240)       105.4  Rx     00000802  8  00 00 00 7F FF 80 08 00 
   241)       105.9  Rx     00002901  8  FC 2A 00 00 00 06 20 00 
   242)       106.1  Rx     00002902  8  00 64 00 00 FF FE 20 00 
   243)       108.0  Rx     00002901  8  FC 2A 00 00 00 02 20 00 
   244)       108.1  Rx     00002902  8  00 64 00 00 FF FC 20 00 
   245)       108.9  Rx         0003  8  F9 4F 00 AE F9 4F 00 AE 
   246)       109.0  Rx         0004  8  00 00 00 00 00 00 00 00 
   247)       109.1  Rx         0005  8  00 00 00 00 00 00 01 76 
   248)       109.3  Rx     00000801  8  00 00 00 7F FF 80 08 00 
   249)       109.4  Rx     00000802  8  00 00 00 7F FF 80 08 00 
   250)       109.9  Rx     00002901  8  FC 2A 00 00 00 06 20 00 
   251)       110.1  Rx     00002902  8  00 64 00 00 FF FA 20 00 
   252)       111.9  Rx     00002901  8  FC 2A 00 00 FF FF 20 00 
   253)       112.1  Rx     00002902  8  00 64 00 00 FF FA 20 00 
   254)       112.9  Rx         0003  8  F9 4F 00 AE F9 4F 00 AE 
   255)       113.0  Rx         0004  8  00 00 00 00 00 00 00 00 
   256)       113.1  Rx         0005  8  00 00 00 00 00 00 01 77 
   257)       113.3  Rx     00000801  8  00 00 00 7F FF 80 08 00 
   258)       113.4  Rx     00000802  8  00 00 00 7F FF 80 08 00 
   259)       113.9  Rx     00002901  8  FC 2A 00 00 00 03 20 00 
   260)       114.1  Rx     00002902  8  00 64 00 00 FF FC 20 00 
   261)       115.9  Rx     00002901  8  FC 2A 00 00 FF FF 20 00 
   262)       116.1  Rx     00002902  8  00 64 00 00 FF F8 21 00 
   263)       116.9  Rx         0003  8  F9 4F 00 AE F9 4F 00 AE 
   264)       117.0  Rx         0004  8  00 00 00 00 00 00 00 00 
   265)       117.1  Rx         0005  8  00 00 00 00 00 00 01 76 
   266)       117.3  Rx     00000801  8  00 00 00 7F FF 80 08 00 
   267)       117.4  Rx     00000802  8  00 00 00 7F FF 80 08 00 
   268)       117.9  Rx     00002901  8  FC 2A 00 00 00 03 21 00 
   269)       118.1  Rx     00002902  8  00 64 00 00 FF FB 20 00 
   270)       119.9  Rx     00002901  8  FC 2A 00 00 00 03 20 00 
   271)       120.1  Rx     00002902  8  00 64 00 00 FF F7 20 00 
   272)       120.9  Rx         0003  8  F9 4F 00 AE F9 4F 00 AE 
   273)       121.0  Rx         0004  8  00 00 00 00 00 00 00 00 
   274)       121.1  Rx         0005  8  00 00 00 00 00 00 01 78 
   275)       121.3  Rx     00000801  8  00 00 00 7F FF 80 08 00 
   276)       121.4  Rx     00000802  8  00 00 00 7F FF 80 08 00 
   277)       121.9  Rx     00002901  8  FC 2A 00 00 00 05 21 00 
   278)       122.1  Rx     00002902  8  00 64 00 00 FF F8 20 00 
   279)       123.9  Rx     00002901  8  FC 2A 00 00 00 00 20 00 
   280)       124.1  Rx     00002902  8  00 64 00 00 FF FB 20 00 
   281)       124.9  Rx         0003  8  F9 4F 00 AE F9 4F 00 AE 
   282)       125.0  Rx         0004  8  00 00 00 00 00 00 00 00 
   283)       125.1  Rx         0005  8  00 00 00 00 00 00 01 76 
   284)       125.3  Rx     00000801  8  00 00 00 7F FF 80 08 00 
   285)       125.4  Rx     00000802  8  00 00 00 7F FF 80 08 00 
   286)       125.9  Rx     00002901  8  FC 2A 00 00 00 05 20 00 
   287)       126.1  Rx     00002902  8  00 64 00 00 FF FC 20 00 
   288)       127.9  Rx     00002901  8  FC 2A 00 00 00 00 20 00 
   289)       128.1  Rx     00002902  8  00 64 00 00 FF FB 20 00 
   290)       128.9  Rx         0003  8  F9 4F 00 AE F9 4F 00 AE 
   291)       129.0  Rx         0004  8  00 00 00 00 00 00 00 00 
   292)       129.2  Rx         0005  8  00 00 00 00 00 00 01 76 
   293)       129.3  Rx     00000801  8  00 00 00 7F FF 80 08 00 
   294)       129.5  Rx     00000802  8  00 00 00 7F FF 80 08 00 
   295)       129.9  Rx     00002901  8  FC 2A 00 00 00 03 20 00 
   296)       130.1  Rx     00002902  8  00 64 00 00 FF FA 20 00 
   297)       131.9  Rx     00002901  8  FC 2A 00 00 00 00 20 00 
   298)       132.1  Rx     00002902  8  00 64 00 00 FF FB 20 00 
   299)       132.9  Rx         0003  8  F9 4F 00 AE F9 4F 00 AE 
   300)       133.0  Rx         0004  8  00 00 00 00 00 00 00 00 
   301)       133.1  Rx         0005  8  00 00 00 00 00 00 01 77 
   302)       133.3  Rx     00000801  8  00 00 00 7F FF 80 08 00 
   303)       133.4  Rx     00000802  8  00 00 00 7F FF 80 08 00 
   304)       133.9  Rx     00002901  8  FC 2A 00 00 00 04 21 00 
   305)       134.1  Rx     00002902  8  00 64 00 00 FF FD 20 00 
   306)       135.9  Rx     00002901  8  FC 2A 00 00 00 00 20 00 
   307)       136.1  Rx     00002902  8  00 64 00 00 FF FA 21 00 
   308)       136.9  Rx         0003  8  F9 4F 00 AE F9 4F 00 AE 
   309)       137.0  Rx         0004  8  00 00 00 00 00 00 00 00 
   310)       137.1  Rx         0005  8  00 00 00 00 00 00 01 75 
   311)       137.3  Rx     00000801  8  00 00 00 7F FF 80 08 00 
   312)       137.4  Rx     00000802  8  00 00 00 7F FF 80 08 00 
   313)       137.9  Rx     00002901  8  FC 2A 00 00 00 05 21 00 
   314)       138.1  Rx     00002902  8  00 64 00 00 FF FB 20 00 
   315)       139.9  Rx     00002901  8  FC 2A 00 00 00 01 20 00 
   316)       140.1  Rx     00002902  8  00 64 00 00 FF FB 20 00 
   317)       140.9  Rx         0003  8  F9 4F 00 AE F9 4F 00 AE 
   318)       141.0  Rx         0004  8  00 00 00 00 00 00 00 00 
   319)       141.1  Rx         0005  8  00 00 00 00 00 00 01 76 
   320)       141.3  Rx     00000801  8  00 00 00 7F FF 80 08 00 
   321)       141.4  Rx     00000802  8  00 00 00 7F FF 80 08 00 
   322)       141.9  Rx     00002901  8  FC 2A 00 00 00 04 20 00 
   323)       142.1  Rx     00002902  8  00 64 00 00 FF FB 20 00 
   324)       143.9  Rx     00002901  8  FC 2A 00 00 00 04 20 00 
   325)       144.1  Rx     00002902  8  00 64 00 00 FF F9 20 00 
   326)       144.9  Rx         0003  8  F9 4F 00 AE F9 4F 00 AE 
   327)       145.0  Rx         0004  8  00 00 00 00 00 00 00 00 
   328)       145.1  Rx         0005  8  00 00 00 00 00 00 01 76 
   329)       145.3  Rx     00000801  8  00 00 00 7F FF 80 08 00 
   330)       145.4  Rx     00000802  8  00 00 00 7F FF 80 08 00 
   331)       145.9  Rx     00002901  8  FC 2A 00 00 00 06 20 00 
   332)       146.1  Rx     00002902  8  00 64 00 00 FF F9 20 00 
   333)       147.9  Rx     00002901  8  FC 2A 00 00 00 00 20 00 
   334)       148.1  Rx     00002902  8  00 64 00 00 FF FB 20 00 
   335)       148.9  Rx         0003  8  F9 4F 00 AE F9 4F 00 AE 
   336)       149.0  Rx         0004  8  00 00 00 00 00 00 00 00 
   337)       149.1  Rx         0005  8  00 00 00 00 00 00 01 76 
   338)       149.3  Rx     00000801  8  00 00 00 7F FF 80 08 00 
   339)       149.4  Rx     00000802  8  00 00 00 7F FF 80 08 00 
   340)       149.9  Rx     00002901  8  FC 2A 00 00 00 04 20 00 
   341)       150.1  Rx     00002902  8  00 64 00 00 FF FB 20 00 
   342)       151.9  Rx     00002901  8  FC 2A 00 00 FF FF 20 00 
   343)       152.1  Rx     00002902  8  00 64 00 00 FF F9 20 00 
   344)       152.9  Rx         0003  8  F9 4F 00 AE F9 4F 00 AE 
   345)       153.0  Rx         0004  8  00 00 00 00 00 00 00 00 
   346)       153.1  Rx         0005  8  00 00 00 00 00 00 01 77 
   347)       153.3  Rx     00000801  8  00 00 00 7F FF 80 08 00 
   348)       153.4  Rx     00000802  8  00 00 00 7F FF 80 08 00 
   349)       153.9  Rx     00002901  8  FC 2A 00 00 00 05 20 00 
   350)       154.1  Rx     00002902  8  00 64 00 00 FF FA 20 00 
   351)       156.0  Rx     00002901  8  FC 2A 00 00 00 02 20 00 
   352)       156.1  Rx     00002902  8  00 64 00 00 FF FC 20 00 
   353)       156.9  Rx         0003  8  F9 4F 00 AE F9 4F 00 AE 
   354)       157.0  Rx         0004  8  00 00 00 00 00 00 00 00 
   355)       157.1  Rx         0005  8  00 00 00 00 00 00 01 76 
   356)       157.3  Rx     00000801  8  00 00 00 7F FF 80 08 00 
   357)       157.4  Rx     00000802  8  00 00 00 7F FF 80 08 00 
   358)       157.9  Rx     00002901  8  FC 2A 00 00 00 02 20 00 
   359)       158.1  Rx     00002902  8  00 64 00 00 FF FF 20 00 
   360)       159.9  Rx     00002901  8  FC 2A 00 00 00 02 20 00 
   361)       160.0  Rx     00002902  8  00 64 00 00 FF F8 20 00 
   362)       160.9  Rx         0003  8  F9 4F 00 AE F9 4F 00 AE 
   363)       161.0  Rx         0004  8  00 00 00 00 00 00 00 00 
   364)       161.2  Rx         0005  8  00 00 00 00 00 00 01 77 
   365)       161.3  Rx     00000801  8  00 00 00 7F FF 80 08 00 
   366)       161.4  Rx     00000802  8  00 00 00 7F FF 80 08 00 
   367)       161.9  Rx     00002901  8  FC 2A 00 00 00 03 20 00 
   368)       162.1  Rx     00002902  8  00 64 00 00 FF FD 20 00 
   369)       163.9  Rx     00002901  8  FC 2A 00 00 FF FE 20 00 
   370)       164.1  Rx     00002902  8  00 64 00 00 FF FB 20 00 
   371)       164.9  Rx         0003  8  F9 4F 00 AE F9 4F 00 AE 
