;$FILEVERSION=1.1
;$STARTTIME=45802.0048988079
;
;   Start time: 5/25/2025 00:07:03.257.0
;   Generated by PCAN-View v5.3.2.952
;
;   Message Number
;   |         Time Offset (ms)
;   |         |        Type
;   |         |        |        ID (hex)
;   |         |        |        |     Data Length
;   |         |        |        |     |   Data Bytes (hex) ...
;   |         |        |        |     |   |
;---+--   ----+----  --+--  ----+---  +  -+ -- -- -- -- -- -- --
     1)         1.6  Rx     00002901  8  FC 37 00 00 FF FA 22 00 
     2)         1.8  Rx     00002902  8  00 7A 00 00 FF FD 21 00 
     3)         2.6  Rx         0003  8  F9 65 00 D4 F9 65 00 D4 
     4)         2.7  Rx         0004  8  00 00 00 00 00 00 00 00 
     5)         2.8  Rx         0005  8  00 00 00 00 00 00 01 72 
     6)         3.0  Rx     00000801  8  00 00 00 7F FF 80 08 00 
     7)         3.1  Rx     00000802  8  00 00 00 7F FF 80 08 00 
     8)         3.6  Rx     00002901  8  FC 37 00 00 FF FC 22 00 
     9)         3.8  Rx     00002902  8  00 7A 00 00 FF FF 21 00 
    10)         5.5  Rx     00002901  8  FC 37 00 00 FF FD 22 00 
    11)         5.8  Rx     00002902  8  00 7A 00 00 FF FE 21 00 
    12)         6.6  Rx         0003  8  F9 65 00 D4 F9 65 00 D4 
    13)         6.7  Rx         0004  8  00 00 00 00 00 00 00 00 
    14)         6.8  Rx         0005  8  00 00 00 00 00 00 01 72 
    15)         7.0  Rx     00000801  8  00 00 00 7F FF 80 08 00 
    16)         7.1  Rx     00000802  8  00 00 00 7F FF 80 08 00 
    17)         7.5  Rx     00002901  8  FC 37 00 00 FF FF 22 00 
    18)         7.8  Rx     00002902  8  00 7A 00 00 FF FC 21 00 
    19)         9.5  Rx     00002901  8  FC 37 00 00 FF FB 22 00 
    20)         9.8  Rx     00002902  8  00 7A 00 00 FF FD 21 00 
    21)        10.6  Rx         0003  8  F9 65 00 D4 F9 65 00 D4 
    22)        10.7  Rx         0004  8  00 00 00 00 00 00 00 00 
    23)        10.8  Rx         0005  8  00 00 00 00 00 00 01 72 
    24)        11.0  Rx     00000801  8  00 00 00 7F FF 80 08 00 
    25)        11.1  Rx     00000802  8  00 00 00 7F FF 80 08 00 
    26)        11.6  Rx     00002901  8  FC 37 00 00 FF F9 22 00 
    27)        11.8  Rx     00002902  8  00 7A 00 00 FF FA 21 00 
    28)        13.6  Rx     00002901  8  FC 37 00 00 FF FF 22 00 
    29)        13.8  Rx     00002902  8  00 7A 00 00 00 00 21 00 
    30)        14.5  Rx         0003  8  F9 65 00 D4 F9 65 00 D4 
    31)        14.7  Rx         0004  8  00 00 00 00 00 00 00 00 
    32)        14.8  Rx         0005  8  00 00 00 00 00 00 01 72 
    33)        15.0  Rx     00000801  8  00 00 00 7F FF 80 08 00 
    34)        15.1  Rx     00000802  8  00 00 00 7F FF 80 08 00 
    35)        15.6  Rx     00002901  8  FC 37 00 00 FF FC 22 00 
    36)        15.8  Rx     00002902  8  00 7A 00 00 FF FB 21 00 
    37)        17.6  Rx     00002901  8  FC 37 00 00 FF FC 22 00 
    38)        17.8  Rx     00002902  8  00 7A 00 00 00 00 21 00 
    39)        18.5  Rx         0003  8  F9 65 00 D4 F9 65 00 D4 
    40)        18.7  Rx         0004  8  00 00 00 00 00 00 00 00 
    41)        18.8  Rx         0005  8  00 00 00 00 00 00 01 72 
    42)        19.0  Rx     00000801  8  00 00 00 7F FF 80 08 00 
    43)        19.1  Rx     00000802  8  00 00 00 7F FF 80 08 00 
    44)        19.6  Rx     00002901  8  FC 37 00 00 FF FA 22 00 
    45)        19.8  Rx     00002902  8  00 7A 00 00 FF FB 21 00 
    46)        21.6  Rx     00002901  8  FC 37 00 00 FF FA 22 00 
    47)        21.8  Rx     00002902  8  00 7A 00 00 FF FB 21 00 
    48)        22.6  Rx         0003  8  F9 65 00 D4 F9 65 00 D4 
    49)        22.7  Rx         0004  8  00 00 00 00 00 00 00 00 
    50)        22.8  Rx         0005  8  00 00 00 00 00 00 01 72 
    51)        23.0  Rx     00000801  8  00 00 00 7F FF 80 08 00 
    52)        23.1  Rx     00000802  8  00 00 00 7F FF 80 08 00 
    53)        23.5  Rx     00002901  8  FC 37 00 00 FF F7 22 00 
    54)        23.8  Rx     00002902  8  00 7A 00 00 FF FC 21 00 
    55)        25.5  Rx     00002901  8  FC 37 00 00 FF FE 22 00 
    56)        25.8  Rx     00002902  8  00 7A 00 00 FF F9 21 00 
    57)        26.6  Rx         0003  8  F9 65 00 D4 F9 65 00 D4 
    58)        26.7  Rx         0004  8  00 00 00 00 00 00 00 00 
    59)        26.8  Rx         0005  8  00 00 00 00 00 00 01 72 
    60)        27.0  Rx     00000801  8  00 00 00 7F FF 80 08 00 
    61)        27.1  Rx     00000802  8  00 00 00 7F FF 80 08 00 
    62)        27.6  Rx     00002901  8  FC 37 00 00 FF F9 22 00 
    63)        27.8  Rx     00002902  8  00 7A 00 00 FF FA 21 00 
    64)        29.6  Rx     00002901  8  FC 37 00 00 FF F7 22 00 
    65)        29.8  Rx     00002902  8  00 7A 00 00 FF FD 21 00 
    66)        30.6  Rx         0003  8  F9 65 00 D4 F9 65 00 D4 
    67)        30.7  Rx         0004  8  00 00 00 00 00 00 00 00 
    68)        30.8  Rx         0005  8  00 00 00 00 00 00 01 72 
    69)        31.0  Rx     00000801  8  00 00 00 7F FF 80 08 00 
    70)        31.1  Rx     00000802  8  00 00 00 7F FF 80 08 00 
    71)        31.6  Rx     00002901  8  FC 37 00 00 FF FB 22 00 
    72)        31.8  Rx     00002902  8  00 7A 00 00 FF F9 21 00 
    73)        33.6  Rx     00002901  8  FC 37 00 00 FF FB 22 00 
    74)        33.8  Rx     00002902  8  00 7A 00 00 FF FC 21 00 
    75)        34.5  Rx         0003  8  F9 65 00 D4 F9 65 00 D4 
    76)        34.7  Rx         0004  8  00 00 00 00 00 00 00 00 
    77)        34.8  Rx         0005  8  00 00 00 00 00 00 01 72 
    78)        35.0  Rx     00000801  8  00 00 00 7F FF 80 08 00 
    79)        35.1  Rx     00000802  8  00 00 00 7F FF 80 08 00 
    80)        35.6  Rx     00002901  8  FC 37 00 00 FF FB 22 00 
    81)        35.8  Rx     00002902  8  00 7A 00 00 FF FD 21 00 
    82)        37.6  Rx     00002901  8  FC 37 00 00 FF FA 22 00 
    83)        37.8  Rx     00002902  8  00 7A 00 00 FF FC 21 00 
    84)        38.6  Rx         0003  8  F9 65 00 D4 F9 65 00 D4 
    85)        38.7  Rx         0004  8  00 00 00 00 00 00 00 00 
    86)        38.8  Rx         0005  8  00 00 00 00 00 00 01 72 
    87)        38.9  Rx     00000801  8  00 00 00 7F FF 80 08 00 
    88)        39.1  Rx     00000802  8  00 00 00 7F FF 80 08 00 
    89)        39.5  Rx     00002901  8  FC 37 00 00 FF FB 22 00 
    90)        39.8  Rx     00002902  8  00 7A 00 00 FF FB 21 00 
    91)        41.6  Rx     00002901  8  FC 37 00 00 FF FB 22 00 
    92)        41.8  Rx     00002902  8  00 7A 00 00 FF FF 21 00 
    93)        42.6  Rx         0003  8  F9 65 00 D4 F9 65 00 D4 
    94)        42.7  Rx         0004  8  00 00 00 00 00 00 00 00 
    95)        42.8  Rx         0005  8  00 00 00 00 00 00 01 72 
    96)        43.0  Rx     00000801  8  00 00 00 7F FF 80 08 00 
    97)        43.1  Rx     00000802  8  00 00 00 7F FF 80 08 00 
    98)        43.6  Rx     00002901  8  FC 37 00 00 FF FA 22 00 
    99)        43.8  Rx     00002902  8  00 7A 00 00 FF FB 21 00 
   100)        45.6  Rx     00002901  8  FC 37 00 00 00 00 22 00 
   101)        45.8  Rx     00002902  8  00 7A 00 00 FF FD 21 00 
   102)        46.6  Rx         0003  8  F9 65 00 D4 F9 65 00 D4 
   103)        46.7  Rx         0004  8  00 00 00 00 00 00 00 00 
   104)        46.8  Rx         0005  8  00 00 00 00 00 00 01 72 
   105)        47.0  Rx     00000801  8  00 00 00 7F FF 80 08 00 
   106)        47.1  Rx     00000802  8  00 00 00 7F FF 80 08 00 
   107)        47.6  Rx     00002901  8  FC 37 00 00 FF FB 22 00 
   108)        47.8  Rx     00002902  8  00 7A 00 00 FF FA 21 00 
   109)        49.6  Rx     00002901  8  FC 37 00 00 FF FC 22 00 
   110)        49.8  Rx     00002902  8  00 7A 00 00 FF FC 21 00 
   111)        50.6  Rx         0003  8  F9 65 00 D4 F9 65 00 D4 
   112)        50.7  Rx         0004  8  00 00 00 00 00 00 00 00 
   113)        50.8  Rx         0005  8  00 00 00 00 00 00 01 72 
   114)        51.0  Rx     00000801  8  00 00 00 7F FF 80 08 00 
   115)        51.1  Rx     00000802  8  00 00 00 7F FF 80 08 00 
   116)        51.6  Rx     00002901  8  FC 37 00 00 FF FB 22 00 
   117)        51.8  Rx     00002902  8  00 7A 00 00 FF FB 21 00 
   118)        53.5  Rx     00002901  8  FC 37 00 00 FF FD 22 00 
   119)        53.8  Rx     00002902  8  00 7A 00 00 FF FB 21 00 
   120)        54.6  Rx         0003  8  F9 65 00 D4 F9 65 00 D4 
   121)        54.7  Rx         0004  8  00 00 00 00 00 00 00 00 
   122)        54.8  Rx         0005  8  00 00 00 00 00 00 01 72 
   123)        55.0  Rx     00000801  8  00 00 00 7F FF 80 08 00 
   124)        55.1  Rx     00000802  8  00 00 00 7F FF 80 08 00 
   125)        55.6  Rx     00002901  8  FC 37 00 00 FF FA 22 00 
   126)        55.8  Rx     00002902  8  00 7A 00 00 FF FC 21 00 
   127)        57.5  Rx     00002901  8  FC 37 00 00 FF FB 22 00 
   128)        57.8  Rx     00002902  8  00 7A 00 00 FF FD 21 00 
   129)        58.6  Rx         0003  8  F9 65 00 D4 F9 65 00 D4 
   130)        58.7  Rx         0004  8  00 00 00 00 00 00 00 00 
   131)        58.8  Rx         0005  8  00 00 00 00 00 00 01 72 
   132)        59.0  Rx     00000801  8  00 00 00 7F FF 80 08 00 
   133)        59.1  Rx     00000802  8  00 00 00 7F FF 80 08 00 
   134)        59.6  Rx     00002901  8  FC 37 00 00 FF FB 22 00 
   135)        59.8  Rx     00002902  8  00 7A 00 00 FF FC 21 00 
   136)        61.6  Rx     00002901  8  FC 37 00 00 00 00 22 00 
   137)        61.8  Rx     00002902  8  00 7A 00 00 FF FF 21 00 
   138)        62.6  Rx         0003  8  F9 65 00 D4 F9 65 00 D4 
   139)        62.7  Rx         0004  8  00 00 00 00 00 00 00 00 
   140)        62.8  Rx         0005  8  00 00 00 00 00 00 01 72 
   141)        63.0  Rx     00000801  8  00 00 00 7F FF 80 08 00 
   142)        63.1  Rx     00000802  8  00 00 00 7F FF 80 08 00 
   143)        63.6  Rx     00002901  8  FC 37 00 00 FF FF 22 00 
   144)        63.8  Rx     00002902  8  00 7A 00 00 FF FB 21 00 
   145)        65.6  Rx     00002901  8  FC 37 00 00 FF FC 22 00 
   146)        65.8  Rx     00002902  8  00 7A 00 00 FF F9 21 00 
   147)        66.5  Rx         0003  8  F9 65 00 D4 F9 65 00 D4 
   148)        66.7  Rx         0004  8  00 00 00 00 00 00 00 00 
   149)        66.8  Rx         0005  8  00 00 00 00 00 00 01 72 
   150)        67.0  Rx     00000801  8  00 00 00 7F FF 80 08 00 
   151)        67.1  Rx     00000802  8  00 00 00 7F FF 80 08 00 
   152)        67.6  Rx     00002901  8  FC 37 00 00 FF FD 22 00 
   153)        67.8  Rx     00002902  8  00 7A 00 00 FF FD 21 00 
   154)        69.6  Rx     00002901  8  FC 37 00 00 FF F8 22 00 
   155)        69.8  Rx     00002902  8  00 7A 00 00 FF FC 21 00 
   156)        70.6  Rx         0003  8  F9 65 00 D4 F9 65 00 D4 
   157)        70.7  Rx         0004  8  00 00 00 00 00 00 00 00 
   158)        70.8  Rx         0005  8  00 00 00 00 00 00 01 72 
   159)        71.0  Rx     00000801  8  00 00 00 7F FF 80 08 00 
   160)        71.1  Rx     00000802  8  00 00 00 7F FF 80 08 00 
   161)        71.5  Rx     00002901  8  FC 37 00 00 FF FA 22 00 
   162)        71.8  Rx     00002902  8  00 7A 00 00 FF FA 21 00 
   163)        73.5  Rx     00002901  8  FC 37 00 00 FF FC 22 00 
   164)        73.8  Rx     00002902  8  00 7A 00 00 FF FF 21 00 
   165)        74.6  Rx         0003  8  F9 65 00 D4 F9 65 00 D4 
   166)        74.7  Rx         0004  8  00 00 00 00 00 00 00 00 
   167)        74.8  Rx         0005  8  00 00 00 00 00 00 01 73 
   168)        75.0  Rx     00000801  8  00 00 00 7F FF 80 08 00 
   169)        75.1  Rx     00000802  8  00 00 00 7F FF 80 08 00 
   170)        75.6  Rx     00002901  8  FC 37 00 00 FF FB 22 00 
   171)        75.8  Rx     00002902  8  00 7A 00 00 FF FA 21 00 
   172)        77.6  Rx     00002901  8  FC 37 00 00 FF F8 22 00 
   173)        77.8  Rx     00002902  8  00 7A 00 00 FF FE 21 00 
   174)        78.6  Rx         0003  8  F9 65 00 D4 F9 65 00 D4 
   175)        78.7  Rx         0004  8  00 00 00 00 00 00 00 00 
   176)        78.8  Rx         0005  8  00 00 00 00 00 00 01 73 
   177)        79.0  Rx     00000801  8  00 00 00 7F FF 80 08 00 
   178)        79.1  Rx     00000802  8  00 00 00 7F FF 80 08 00 
   179)        79.6  Rx     00002901  8  FC 37 00 00 FF FD 22 00 
   180)        79.8  Rx     00002902  8  00 7A 00 00 FF FC 21 00 
   181)        81.6  Rx     00002901  8  FC 37 00 00 FF FC 22 00 
   182)        81.8  Rx     00002902  8  00 7A 00 00 FF FC 21 00 
   183)        82.5  Rx         0003  8  F9 65 00 D4 F9 65 00 D4 
   184)        82.7  Rx         0004  8  00 00 00 00 00 00 00 00 
   185)        82.8  Rx         0005  8  00 00 00 00 00 00 01 73 
   186)        83.0  Rx     00000801  8  00 00 00 7F FF 80 08 00 
   187)        83.1  Rx     00000802  8  00 00 00 7F FF 80 08 00 
   188)        83.6  Rx     00002901  8  FC 37 00 00 FF FA 22 00 
   189)        83.8  Rx     00002902  8  00 7A 00 00 FF F8 21 00 
   190)        85.6  Rx     00002901  8  FC 37 00 00 FF FB 22 00 
   191)        85.8  Rx     00002902  8  00 7A 00 00 FF FC 21 00 
   192)        86.6  Rx         0003  8  F9 65 00 D4 F9 65 00 D4 
   193)        86.7  Rx         0004  8  00 00 00 00 00 00 00 00 
   194)        86.8  Rx         0005  8  00 00 00 00 00 00 01 73 
   195)        86.9  Rx     00000801  8  00 00 00 7F FF 80 08 00 
   196)        87.1  Rx     00000802  8  00 00 00 7F FF 80 08 00 
   197)        87.5  Rx     00002901  8  FC 37 00 00 FF FA 22 00 
   198)        87.8  Rx     00002902  8  00 7A 00 00 FF FC 21 00 
   199)        89.5  Rx     00002901  8  FC 37 00 00 FF FC 22 00 
   200)        89.8  Rx     00002902  8  00 7A 00 00 FF FC 21 00 
   201)        90.6  Rx         0003  8  F9 65 00 D4 F9 65 00 D4 
   202)        90.7  Rx         0004  8  00 00 00 00 00 00 00 00 
   203)        90.8  Rx         0005  8  00 00 00 00 00 00 01 72 
   204)        91.0  Rx     00000801  8  00 00 00 7F FF 80 08 00 
   205)        91.1  Rx     00000802  8  00 00 00 7F FF 80 08 00 
   206)        91.6  Rx     00002901  8  FC 37 00 00 FF FB 22 00 
   207)        91.8  Rx     00002902  8  00 7A 00 00 FF F9 21 00 
   208)        93.6  Rx     00002901  8  FC 37 00 00 FF FC 22 00 
   209)        93.8  Rx     00002902  8  00 7A 00 00 FF FC 21 00 
   210)        94.6  Rx         0003  8  F9 65 00 D4 F9 65 00 D4 
   211)        94.7  Rx         0004  8  00 00 00 00 00 00 00 00 
   212)        94.8  Rx         0005  8  00 00 00 00 00 00 01 71 
   213)        95.0  Rx     00000801  8  00 00 00 7F FF 80 08 00 
   214)        95.1  Rx     00000802  8  00 00 00 7F FF 80 08 00 
   215)        95.6  Rx     00002901  8  FC 37 00 00 FF FB 22 00 
   216)        95.8  Rx     00002902  8  00 7A 00 00 FF F9 21 00 
   217)        97.6  Rx     00002901  8  FC 37 00 00 FF FE 22 00 
   218)        97.8  Rx     00002902  8  00 7A 00 00 FF FE 21 00 
   219)        98.6  Rx         0003  8  F9 65 00 D4 F9 65 00 D4 
   220)        98.7  Rx         0004  8  00 00 00 00 00 00 00 00 
   221)        98.8  Rx         0005  8  00 00 00 00 00 00 01 73 
   222)        99.0  Rx     00000801  8  00 00 00 7F FF 80 08 00 
   223)        99.1  Rx     00000802  8  00 00 00 7F FF 80 08 00 
   224)        99.6  Rx     00002901  8  FC 37 00 00 FF FA 22 00 
   225)        99.8  Rx     00002902  8  00 7A 00 00 FF FD 21 00 
   226)       101.6  Rx     00002901  8  FC 37 00 00 FF FA 22 00 
   227)       101.8  Rx     00002902  8  00 7A 00 00 FF FD 21 00 
   228)       102.6  Rx         0003  8  F9 65 00 D4 F9 65 00 D4 
   229)       102.7  Rx         0004  8  00 00 00 00 00 00 00 00 
   230)       102.8  Rx         0005  8  00 00 00 00 00 00 01 72 
   231)       103.0  Rx     00000801  8  00 00 00 7F FF 80 08 00 
   232)       103.1  Rx     00000802  8  00 00 00 7F FF 80 08 00 
   233)       103.6  Rx     00002901  8  FC 37 00 00 FF F9 22 00 
   234)       103.8  Rx     00002902  8  00 7A 00 00 FF FC 21 00 
   235)       105.5  Rx     00002901  8  FC 37 00 00 FF FB 22 00 
   236)       105.8  Rx     00002902  8  00 7A 00 00 FF FC 21 00 
   237)       106.6  Rx         0003  8  F9 65 00 D4 F9 65 00 D4 
   238)       106.7  Rx         0004  8  00 00 00 00 00 00 00 00 
   239)       106.8  Rx         0005  8  00 00 00 00 00 00 01 72 
   240)       107.0  Rx     00000801  8  00 00 00 7F FF 80 08 00 
   241)       107.1  Rx     00000802  8  00 00 00 7F FF 80 08 00 
   242)       107.6  Rx     00002901  8  FC 37 00 00 FF FB 22 00 
   243)       107.8  Rx     00002902  8  00 7A 00 00 FF FC 21 00 
   244)       109.6  Rx     00002901  8  FC 37 00 00 FF FB 22 00 
   245)       109.8  Rx     00002902  8  00 7A 00 00 FF FE 21 00 
   246)       110.6  Rx         0003  8  F9 65 00 D4 F9 65 00 D4 
   247)       110.7  Rx         0004  8  00 00 00 00 00 00 00 00 
   248)       110.8  Rx         0005  8  00 00 00 00 00 00 01 71 
   249)       111.0  Rx     00000801  8  00 00 00 7F FF 80 08 00 
   250)       111.1  Rx     00000802  8  00 00 00 7F FF 80 08 00 
   251)       111.6  Rx     00002901  8  FC 37 00 00 FF FD 22 00 
   252)       111.8  Rx     00002902  8  00 7A 00 00 FF FC 21 00 
   253)       113.6  Rx     00002901  8  FC 37 00 00 FF FD 22 00 
   254)       113.8  Rx     00002902  8  00 7A 00 00 FF FC 21 00 
   255)       114.5  Rx         0003  8  F9 65 00 D4 F9 65 00 D4 
   256)       114.7  Rx         0004  8  00 00 00 00 00 00 00 00 
   257)       114.8  Rx         0005  8  00 00 00 00 00 00 01 73 
   258)       115.0  Rx     00000801  8  00 00 00 7F FF 80 08 00 
   259)       115.1  Rx     00000802  8  00 00 00 7F FF 80 08 00 
   260)       115.6  Rx     00002901  8  FC 37 00 00 FF FB 22 00 
   261)       115.8  Rx     00002902  8  00 7A 00 00 FF FB 21 00 
   262)       117.6  Rx     00002901  8  FC 37 00 00 FF FC 22 00 
   263)       117.8  Rx     00002902  8  00 7A 00 00 FF FD 21 00 
   264)       118.6  Rx         0003  8  F9 65 00 D4 F9 65 00 D4 
   265)       118.7  Rx         0004  8  00 00 00 00 00 00 00 00 
   266)       118.8  Rx         0005  8  00 00 00 00 00 00 01 72 
   267)       119.0  Rx     00000801  8  00 00 00 7F FF 80 08 00 
   268)       119.1  Rx     00000802  8  00 00 00 7F FF 80 08 00 
   269)       119.6  Rx     00002901  8  FC 37 00 00 FF FB 22 00 
   270)       119.8  Rx     00002902  8  00 7A 00 00 FF FC 21 00 
   271)       121.5  Rx     00002901  8  FC 37 00 00 FF FB 22 00 
   272)       121.8  Rx     00002902  8  00 7A 00 00 FF FD 21 00 
   273)       122.6  Rx         0003  8  F9 65 00 D4 F9 65 00 D4 
   274)       122.7  Rx         0004  8  00 00 00 00 00 00 00 00 
   275)       122.8  Rx         0005  8  00 00 00 00 00 00 01 72 
   276)       123.0  Rx     00000801  8  00 00 00 7F FF 80 08 00 
   277)       123.1  Rx     00000802  8  00 00 00 7F FF 80 08 00 
   278)       123.6  Rx     00002901  8  FC 37 00 00 FF FB 22 00 
   279)       123.8  Rx     00002902  8  00 7A 00 00 FF F9 21 00 
   280)       125.6  Rx     00002901  8  FC 37 00 00 FF F9 22 00 
   281)       125.8  Rx     00002902  8  00 7A 00 00 FF FF 21 00 
   282)       126.6  Rx         0003  8  F9 65 00 D4 F9 65 00 D4 
   283)       126.7  Rx         0004  8  00 00 00 00 00 00 00 00 
   284)       126.8  Rx         0005  8  00 00 00 00 00 00 01 71 
   285)       127.0  Rx     00000801  8  00 00 00 7F FF 80 08 00 
   286)       127.1  Rx     00000802  8  00 00 00 7F FF 80 08 00 
   287)       127.6  Rx     00002901  8  FC 37 00 00 FF F9 22 00 
   288)       127.8  Rx     00002902  8  00 7A 00 00 FF FD 21 00 
   289)       129.6  Rx     00002901  8  FC 37 00 00 FF F9 22 00 
   290)       129.8  Rx     00002902  8  00 7A 00 00 FF FB 21 00 
   291)       130.5  Rx         0003  8  F9 65 00 D4 F9 65 00 D4 
   292)       130.7  Rx         0004  8  00 00 00 00 00 00 00 00 
   293)       130.8  Rx         0005  8  00 00 00 00 00 00 01 73 
   294)       131.0  Rx     00000801  8  00 00 00 7F FF 80 08 00 
   295)       131.1  Rx     00000802  8  00 00 00 7F FF 80 08 00 
   296)       131.6  Rx     00002901  8  FC 37 00 00 FF FC 22 00 
   297)       131.8  Rx     00002902  8  00 7A 00 00 FF FA 21 00 
   298)       133.6  Rx     00002901  8  FC 37 00 00 FF FC 22 00 
   299)       133.8  Rx     00002902  8  00 7A 00 00 FF FC 21 00 
   300)       134.6  Rx         0003  8  F9 65 00 D4 F9 65 00 D4 
   301)       134.7  Rx         0004  8  00 00 00 00 00 00 00 00 
   302)       134.8  Rx         0005  8  00 00 00 00 00 00 01 73 
   303)       135.0  Rx     00000801  8  00 00 00 7F FF 80 08 00 
   304)       135.1  Rx     00000802  8  00 00 00 7F FF 80 08 00 
   305)       135.5  Rx     00002901  8  FC 37 00 00 FF F9 22 00 
   306)       135.8  Rx     00002902  8  00 7A 00 00 00 00 21 00 
   307)       137.6  Rx     00002901  8  FC 37 00 00 FF FF 22 00 
   308)       137.8  Rx     00002902  8  00 7A 00 00 FF FB 21 00 
   309)       138.6  Rx         0003  8  F9 65 00 D4 F9 65 00 D4 
   310)       138.7  Rx         0004  8  00 00 00 00 00 00 00 00 
   311)       138.8  Rx         0005  8  00 00 00 00 00 00 01 73 
   312)       139.0  Rx     00000801  8  00 00 00 7F FF 80 08 00 
   313)       139.1  Rx     00000802  8  00 00 00 7F FF 80 08 00 
   314)       139.6  Rx     00002901  8  FC 37 00 00 FF F8 22 00 
   315)       139.8  Rx     00002902  8  00 7A 00 00 FF FA 21 00 
   316)       141.6  Rx     00002901  8  FC 37 00 00 FF FA 22 00 
   317)       141.8  Rx     00002902  8  00 7A 00 00 FF FE 21 00 
   318)       142.6  Rx         0003  8  F9 65 00 D4 F9 65 00 D4 
   319)       142.7  Rx         0004  8  00 00 00 00 00 00 00 00 
   320)       142.8  Rx         0005  8  00 00 00 00 00 00 01 73 
   321)       143.0  Rx     00000801  8  00 00 00 7F FF 80 08 00 
   322)       143.1  Rx     00000802  8  00 00 00 7F FF 80 08 00 
   323)       143.6  Rx     00002901  8  FC 37 00 00 FF FB 22 00 
   324)       143.8  Rx     00002902  8  00 7A 00 00 FF F9 21 00 
   325)       145.6  Rx     00002901  8  FC 37 00 00 FF FD 22 00 
   326)       145.8  Rx     00002902  8  00 7A 00 00 00 00 21 00 
   327)       146.6  Rx         0003  8  F9 65 00 D4 F9 65 00 D4 
   328)       146.7  Rx         0004  8  00 00 00 00 00 00 00 00 
   329)       146.8  Rx         0005  8  00 00 00 00 00 00 01 73 
   330)       147.0  Rx     00000801  8  00 00 00 7F FF 80 08 00 
   331)       147.1  Rx     00000802  8  00 00 00 7F FF 80 08 00 
   332)       147.6  Rx     00002901  8  FC 37 00 00 FF F9 22 00 
   333)       147.8  Rx     00002902  8  00 7A 00 00 FF F9 21 00 
   334)       149.5  Rx     00002901  8  FC 37 00 00 FF FC 22 00 
   335)       149.8  Rx     00002902  8  00 7A 00 00 FF FC 21 00 
   336)       150.6  Rx         0003  8  F9 65 00 D4 F9 65 00 D4 
   337)       150.7  Rx         0004  8  00 00 00 00 00 00 00 00 
   338)       150.8  Rx         0005  8  00 00 00 00 00 00 01 73 
   339)       151.0  Rx     00000801  8  00 00 00 7F FF 80 08 00 
   340)       151.1  Rx     00000802  8  00 00 00 7F FF 80 08 00 
   341)       151.6  Rx     00002901  8  FC 37 00 00 FF FA 22 00 
   342)       151.8  Rx     00002902  8  00 7A 00 00 00 00 21 00 
   343)       153.5  Rx     00002901  8  FC 37 00 00 FF FE 22 00 
   344)       153.8  Rx     00002902  8  00 7A 00 00 FF FE 21 00 
   345)       154.6  Rx         0003  8  F9 65 00 D4 F9 65 00 D4 
   346)       154.7  Rx         0004  8  00 00 00 00 00 00 00 00 
   347)       154.8  Rx         0005  8  00 00 00 00 00 00 01 73 
   348)       155.0  Rx     00000801  8  00 00 00 7F FF 80 08 00 
   349)       155.1  Rx     00000802  8  00 00 00 7F FF 80 08 00 
   350)       155.6  Rx     00002901  8  FC 37 00 00 FF F9 22 00 
   351)       155.8  Rx     00002902  8  00 7A 00 00 FF FE 21 00 
   352)       157.6  Rx     00002901  8  FC 37 00 00 FF FC 22 00 
   353)       157.8  Rx     00002902  8  00 7A 00 00 FF FC 21 00 
   354)       158.6  Rx         0003  8  F9 65 00 D4 F9 65 00 D4 
   355)       158.7  Rx         0004  8  00 00 00 00 00 00 00 00 
   356)       158.8  Rx         0005  8  00 00 00 00 00 00 01 73 
   357)       159.0  Rx     00000801  8  00 00 00 7F FF 80 08 00 
   358)       159.1  Rx     00000802  8  00 00 00 7F FF 80 08 00 
   359)       159.6  Rx     00002901  8  FC 37 00 00 FF FB 22 00 
   360)       159.8  Rx     00002902  8  00 7A 00 00 00 01 21 00 
   361)       161.6  Rx     00002901  8  FC 37 00 00 FF FC 22 00 
   362)       161.8  Rx     00002902  8  00 7A 00 00 FF FB 21 00 
   363)       162.5  Rx         0003  8  F9 65 00 D4 F9 65 00 D4 
   364)       162.7  Rx         0004  8  00 00 00 00 00 00 00 00 
   365)       162.8  Rx         0005  8  00 00 00 00 00 00 01 73 
   366)       163.0  Rx     00000801  8  00 00 00 7F FF 80 08 00 
   367)       163.1  Rx     00000802  8  00 00 00 7F FF 80 08 00 
   368)       163.6  Rx     00002901  8  FC 37 00 00 FF FA 22 00 
   369)       163.8  Rx     00002902  8  00 7A 00 00 FF FE 21 00 
   370)       165.6  Rx     00002901  8  FC 37 00 00 FF F8 22 00 
   371)       165.8  Rx     00002902  8  00 7A 00 00 FF FE 21 00 
