;$FILEVERSION=1.1
;$STARTTIME=45801.873273912
;
;   Start time: 5/24/2025 20:57:30.866.0
;   Generated by PCAN-View v5.3.2.952
;
;   Message Number
;   |         Time Offset (ms)
;   |         |        Type
;   |         |        |        ID (hex)
;   |         |        |        |     Data Length
;   |         |        |        |     |   Data Bytes (hex) ...
;   |         |        |        |     |   |
;---+--   ----+----  --+--  ----+---  +  -+ -- -- -- -- -- -- --
     1)         0.0  Rx     00002902  8  00 2D 00 00 FF FB 16 00 
     2)         0.3  Rx         0003  8  F9 7A 00 4E F9 7A 00 4E 
     3)         0.4  Rx         0004  8  00 00 00 00 00 00 00 00 
     4)         0.5  Rx         0005  8  00 00 00 00 00 00 01 75 
     5)         0.7  Rx     00000801  8  00 00 00 7F FF 80 08 00 
     6)         0.8  Rx     00000802  8  00 00 00 7F FF 80 08 00 
     7)         1.6  Rx     00002901  8  FC 43 00 00 FF FE 16 00 
     8)         2.0  Rx     00002902  8  00 2D 00 00 FF F9 16 00 
     9)         3.6  Rx     00002901  8  FC 43 00 00 FF FF 16 00 
    10)         4.0  Rx     00002902  8  00 2D 00 00 FF FC 16 00 
    11)         4.3  Rx         0003  8  F9 7A 00 4E F9 7A 00 4E 
    12)         4.4  Rx         0004  8  00 00 00 00 00 00 00 00 
    13)         4.5  Rx         0005  8  00 00 00 00 00 00 01 75 
    14)         4.7  Rx     00000801  8  00 00 00 7F FF 80 08 00 
    15)         4.9  Rx     00000802  8  00 00 00 7F FF 80 08 00 
    16)         5.6  Rx     00002901  8  FC 43 00 00 FF FF 16 00 
    17)         6.0  Rx     00002902  8  00 2D 00 00 FF FB 16 00 
    18)         7.6  Rx     00002901  8  FC 43 00 00 FF FF 16 00 
    19)         7.9  Rx     00002902  8  00 2D 00 00 FF FD 16 00 
    20)         8.3  Rx         0003  8  F9 7A 00 4E F9 7A 00 4E 
    21)         8.4  Rx         0004  8  00 00 00 00 00 00 00 00 
    22)         8.5  Rx         0005  8  00 00 00 00 00 00 01 75 
    23)         8.7  Rx     00000801  8  00 00 00 7F FF 80 08 00 
    24)         8.8  Rx     00000802  8  00 00 00 7F FF 80 08 00 
    25)         9.6  Rx     00002901  8  FC 43 00 00 FF FF 16 00 
    26)        10.0  Rx     00002902  8  00 2D 00 00 FF FC 16 00 
    27)        11.6  Rx     00002901  8  FC 43 00 00 FF FF 16 00 
    28)        11.9  Rx     00002902  8  00 2D 00 00 FF FF 16 00 
    29)        12.3  Rx         0003  8  F9 7A 00 4E F9 7A 00 4E 
    30)        12.5  Rx         0004  8  00 00 00 00 00 00 00 00 
    31)        12.5  Rx         0005  8  00 00 00 00 00 00 01 75 
    32)        12.7  Rx     00000801  8  00 00 00 7F FF 80 08 00 
    33)        12.8  Rx     00000802  8  00 00 00 7F FF 80 08 00 
    34)        13.6  Rx     00002901  8  FC 43 00 00 FF FF 16 00 
    35)        13.9  Rx     00002902  8  00 2D 00 00 FF FB 16 00 
    36)        15.6  Rx     00002901  8  FC 43 00 00 FF FE 16 00 
    37)        16.0  Rx     00002902  8  00 2D 00 00 FF F9 16 00 
    38)        16.3  Rx         0003  8  F9 7A 00 4E F9 7A 00 4E 
    39)        16.4  Rx         0004  8  00 00 00 00 00 00 00 00 
    40)        16.5  Rx         0005  8  00 00 00 00 00 00 01 76 
    41)        16.7  Rx     00000801  8  00 00 00 7F FF 80 08 00 
    42)        16.8  Rx     00000802  8  00 00 00 7F FF 80 08 00 
    43)        17.6  Rx     00002901  8  FC 43 00 00 00 00 16 00 
    44)        18.0  Rx     00002902  8  00 2D 00 00 FF F9 16 00 
    45)        19.6  Rx     00002901  8  FC 43 00 00 FF FF 16 00 
    46)        20.0  Rx     00002902  8  00 2D 00 00 FF FB 16 00 
    47)        20.3  Rx         0003  8  F9 7A 00 4E F9 7A 00 4E 
    48)        20.4  Rx         0004  8  00 00 00 00 00 00 00 00 
    49)        20.5  Rx         0005  8  00 00 00 00 00 00 01 76 
    50)        20.7  Rx     00000801  8  00 00 00 7F FF 80 08 00 
    51)        20.9  Rx     00000802  8  00 00 00 7F FF 80 08 00 
    52)        21.6  Rx     00002901  8  FC 43 00 00 FF FF 16 00 
    53)        22.0  Rx     00002902  8  00 2D 00 00 FF FB 16 00 
    54)        23.6  Rx     00002901  8  FC 43 00 00 FF FF 16 00 
    55)        24.0  Rx     00002902  8  00 2D 00 00 FF F9 16 00 
    56)        24.3  Rx         0003  8  F9 7A 00 4E F9 7A 00 4E 
    57)        24.4  Rx         0004  8  00 00 00 00 00 00 00 00 
    58)        24.5  Rx         0005  8  00 00 00 00 00 00 01 76 
    59)        24.7  Rx     00000801  8  00 00 00 7F FF 80 08 00 
    60)        24.8  Rx     00000802  8  00 00 00 7F FF 80 08 00 
    61)        25.6  Rx     00002901  8  FC 43 00 00 FF FE 16 00 
    62)        25.9  Rx     00002902  8  00 2D 00 00 FF FA 16 00 
    63)        27.6  Rx     00002901  8  FC 43 00 00 FF FE 16 00 
    64)        27.9  Rx     00002902  8  00 2D 00 00 FF FD 16 00 
    65)        28.3  Rx         0003  8  F9 7A 00 4E F9 7A 00 4E 
    66)        28.4  Rx         0004  8  00 00 00 00 00 00 00 00 
    67)        28.5  Rx         0005  8  00 00 00 00 00 00 01 76 
    68)        28.7  Rx     00000801  8  00 00 00 7F FF 80 08 00 
    69)        28.8  Rx     00000802  8  00 00 00 7F FF 80 08 00 
    70)        29.6  Rx     00002901  8  FC 43 00 00 FF FF 16 00 
    71)        29.9  Rx     00002902  8  00 2D 00 00 FF FC 16 00 
    72)        31.6  Rx     00002901  8  FC 43 00 00 FF FF 16 00 
    73)        32.0  Rx     00002902  8  00 2D 00 00 FF F9 16 00 
    74)        32.3  Rx         0003  8  F9 7A 00 4E F9 7A 00 4E 
    75)        32.4  Rx         0004  8  00 00 00 00 00 00 00 00 
    76)        32.5  Rx         0005  8  00 00 00 00 00 00 01 75 
    77)        32.7  Rx     00000801  8  00 00 00 7F FF 80 08 00 
    78)        32.8  Rx     00000802  8  00 00 00 7F FF 80 08 00 
    79)        33.6  Rx     00002901  8  FC 43 00 00 00 00 16 00 
    80)        34.0  Rx     00002902  8  00 2D 00 00 FF F9 16 00 
    81)        35.6  Rx     00002901  8  FC 43 00 00 FF FF 16 00 
    82)        36.0  Rx     00002902  8  00 2D 00 00 FF FA 16 00 
    83)        36.3  Rx         0003  8  F9 7A 00 4E F9 7A 00 4E 
    84)        36.4  Rx         0004  8  00 00 00 00 00 00 00 00 
    85)        36.5  Rx         0005  8  00 00 00 00 00 00 01 75 
    86)        36.7  Rx     00000801  8  00 00 00 7F FF 80 08 00 
    87)        36.9  Rx     00000802  8  00 00 00 7F FF 80 08 00 
    88)        37.6  Rx     00002901  8  FC 43 00 00 FF FF 16 00 
    89)        38.0  Rx     00002902  8  00 2D 00 00 FF F8 16 00 
    90)        39.6  Rx     00002901  8  FC 43 00 00 FF FF 16 00 
    91)        39.9  Rx     00002902  8  00 2D 00 00 FF FC 16 00 
    92)        40.3  Rx         0003  8  F9 7A 00 4E F9 7A 00 4E 
    93)        40.4  Rx         0004  8  00 00 00 00 00 00 00 00 
    94)        40.5  Rx         0005  8  00 00 00 00 00 00 01 75 
    95)        40.7  Rx     00000801  8  00 00 00 7F FF 80 08 00 
    96)        40.8  Rx     00000802  8  00 00 00 7F FF 80 08 00 
    97)        41.6  Rx     00002901  8  FC 43 00 00 FF FF 16 00 
    98)        42.0  Rx     00002902  8  00 2D 00 00 FF FE 16 00 
    99)        43.6  Rx     00002901  8  FC 43 00 00 FF FF 16 00 
   100)        43.9  Rx     00002902  8  00 2D 00 00 FF FC 16 00 
   101)        44.3  Rx         0003  8  F9 7A 00 4E F9 7A 00 4E 
   102)        44.5  Rx         0004  8  00 00 00 00 00 00 00 00 
   103)        44.5  Rx         0005  8  00 00 00 00 00 00 01 75 
   104)        44.7  Rx     00000801  8  00 00 00 7F FF 80 08 00 
   105)        44.8  Rx     00000802  8  00 00 00 7F FF 80 08 00 
   106)        45.6  Rx     00002901  8  FC 43 00 00 FF FE 16 00 
   107)        45.9  Rx     00002902  8  00 2D 00 00 FF F8 16 00 
   108)        47.6  Rx     00002901  8  FC 43 00 00 FF FF 16 00 
   109)        48.0  Rx     00002902  8  00 2D 00 00 FF FB 16 00 
   110)        48.3  Rx         0003  8  F9 7A 00 4E F9 7A 00 4E 
   111)        48.4  Rx         0004  8  00 00 00 00 00 00 00 00 
   112)        48.5  Rx         0005  8  00 00 00 00 00 00 01 75 
   113)        48.7  Rx     00000801  8  00 00 00 7F FF 80 08 00 
   114)        48.8  Rx     00000802  8  00 00 00 7F FF 80 08 00 
   115)        49.6  Rx     00002901  8  FC 43 00 00 00 00 16 00 
   116)        50.0  Rx     00002902  8  00 2D 00 00 FF FF 16 00 
   117)        51.6  Rx     00002901  8  FC 43 00 00 FF FF 16 00 
   118)        52.0  Rx     00002902  8  00 2D 00 00 FF FB 16 00 
   119)        52.3  Rx         0003  8  F9 7A 00 4E F9 7A 00 4E 
   120)        52.4  Rx         0004  8  00 00 00 00 00 00 00 00 
   121)        52.6  Rx         0005  8  00 00 00 00 00 00 01 76 
   122)        52.7  Rx     00000801  8  00 00 00 7F FF 80 08 00 
   123)        52.9  Rx     00000802  8  00 00 00 7F FF 80 08 00 
   124)        53.6  Rx     00002901  8  FC 43 00 00 FF FE 16 00 
   125)        54.0  Rx     00002902  8  00 2D 00 00 FF FB 16 00 
   126)        55.6  Rx     00002901  8  FC 43 00 00 FF FF 16 00 
   127)        55.9  Rx     00002902  8  00 2D 00 00 FF FB 16 00 
   128)        56.3  Rx         0003  8  F9 7A 00 4E F9 7A 00 4E 
   129)        56.4  Rx         0004  8  00 00 00 00 00 00 00 00 
   130)        56.5  Rx         0005  8  00 00 00 00 00 00 01 76 
   131)        56.7  Rx     00000801  8  00 00 00 7F FF 80 08 00 
   132)        56.8  Rx     00000802  8  00 00 00 7F FF 80 08 00 
   133)        57.6  Rx     00002901  8  FC 43 00 00 FF FF 16 00 
   134)        58.0  Rx     00002902  8  00 2D 00 00 FF FC 16 00 
   135)        59.6  Rx     00002901  8  FC 43 00 00 00 00 16 00 
   136)        59.9  Rx     00002902  8  00 2D 00 00 FF FA 16 00 
   137)        60.3  Rx         0003  8  F9 7A 00 4E F9 7A 00 4E 
   138)        60.5  Rx         0004  8  00 00 00 00 00 00 00 00 
   139)        60.5  Rx         0005  8  00 00 00 00 00 00 01 76 
   140)        60.7  Rx     00000801  8  00 00 00 7F FF 80 08 00 
   141)        60.8  Rx     00000802  8  00 00 00 7F FF 80 08 00 
   142)        61.6  Rx     00002901  8  FC 43 00 00 FF FE 16 00 
   143)        61.9  Rx     00002902  8  00 2D 00 00 FF F9 16 00 
   144)        63.6  Rx     00002901  8  FC 43 00 00 FF FF 16 00 
   145)        63.9  Rx     00002902  8  00 2D 00 00 FF FB 16 00 
   146)        64.3  Rx         0003  8  F9 7A 00 4E F9 7A 00 4E 
   147)        64.4  Rx         0004  8  00 00 00 00 00 00 00 00 
   148)        64.5  Rx         0005  8  00 00 00 00 00 00 01 76 
   149)        64.7  Rx     00000801  8  00 00 00 7F FF 80 08 00 
   150)        64.8  Rx     00000802  8  00 00 00 7F FF 80 08 00 
   151)        65.6  Rx     00002901  8  FC 43 00 00 FF FE 16 00 
   152)        66.0  Rx     00002902  8  00 2D 00 00 FF FB 16 00 
   153)        67.6  Rx     00002901  8  FC 43 00 00 FF FF 16 00 
   154)        68.0  Rx     00002902  8  00 2D 00 00 FF F6 16 00 
   155)        68.3  Rx         0003  8  F9 7A 00 4E F9 7A 00 4E 
   156)        68.4  Rx         0004  8  00 00 00 00 00 00 00 00 
   157)        68.5  Rx         0005  8  00 00 00 00 00 00 01 75 
   158)        68.7  Rx     00000801  8  00 00 00 7F FF 80 08 00 
   159)        68.9  Rx     00000802  8  00 00 00 7F FF 80 08 00 
   160)        69.6  Rx     00002901  8  FC 43 00 00 FF FF 16 00 
   161)        70.0  Rx     00002902  8  00 2D 00 00 FF FF 16 00 
   162)        71.6  Rx     00002901  8  FC 43 00 00 FF FF 16 00 
   163)        72.0  Rx     00002902  8  00 2D 00 00 FF F9 16 00 
   164)        72.3  Rx         0003  8  F9 7A 00 4E F9 7A 00 4E 
   165)        72.4  Rx         0004  8  00 00 00 00 00 00 00 00 
   166)        72.5  Rx         0005  8  00 00 00 00 00 00 01 76 
   167)        72.7  Rx     00000801  8  00 00 00 7F FF 80 08 00 
   168)        72.8  Rx     00000802  8  00 00 00 7F FF 80 08 00 
   169)        73.6  Rx     00002901  8  FC 43 00 00 FF FF 16 00 
   170)        73.9  Rx     00002902  8  00 2D 00 00 FF FC 16 00 
   171)        75.6  Rx     00002901  8  FC 43 00 00 FF FF 16 00 
   172)        75.9  Rx     00002902  8  00 2D 00 00 FF FD 16 00 
   173)        76.3  Rx         0003  8  F9 7A 00 4E F9 7A 00 4E 
   174)        76.5  Rx         0004  8  00 00 00 00 00 00 00 00 
   175)        76.5  Rx         0005  8  00 00 00 00 00 00 01 76 
   176)        76.7  Rx     00000801  8  00 00 00 7F FF 80 08 00 
   177)        76.8  Rx     00000802  8  00 00 00 7F FF 80 08 00 
   178)        77.6  Rx     00002901  8  FC 43 00 00 FF FF 16 00 
   179)        77.9  Rx     00002902  8  00 2D 00 00 FF FB 16 00 
   180)        79.6  Rx     00002901  8  FC 43 00 00 FF FF 16 00 
   181)        79.9  Rx     00002902  8  00 2D 00 00 FF FD 16 00 
   182)        80.3  Rx         0003  8  F9 7A 00 4E F9 7A 00 4E 
   183)        80.4  Rx         0004  8  00 00 00 00 00 00 00 00 
   184)        80.5  Rx         0005  8  00 00 00 00 00 00 01 76 
   185)        80.7  Rx     00000801  8  00 00 00 7F FF 80 08 00 
   186)        80.8  Rx     00000802  8  00 00 00 7F FF 80 08 00 
   187)        81.6  Rx     00002901  8  FC 43 00 00 FF FF 16 00 
   188)        82.0  Rx     00002902  8  00 2D 00 00 00 03 16 00 
   189)        83.6  Rx     00002901  8  FC 43 00 00 FF FF 16 00 
   190)        84.0  Rx     00002902  8  00 2D 00 00 FF FA 16 00 
   191)        84.3  Rx         0003  8  F9 7A 00 4E F9 7A 00 4E 
   192)        84.4  Rx         0004  8  00 00 00 00 00 00 00 00 
   193)        84.6  Rx         0005  8  00 00 00 00 00 00 01 76 
   194)        84.7  Rx     00000801  8  00 00 00 7F FF 80 08 00 
   195)        84.9  Rx     00000802  8  00 00 00 7F FF 80 08 00 
   196)        85.6  Rx     00002901  8  FC 43 00 00 FF FF 16 00 
   197)        86.0  Rx     00002902  8  00 2D 00 00 FF FA 16 00 
   198)        87.6  Rx     00002901  8  FC 43 00 00 00 00 16 00 
   199)        87.9  Rx     00002902  8  00 2D 00 00 FF FF 16 00 
   200)        88.3  Rx         0003  8  F9 7A 00 4E F9 7A 00 4E 
   201)        88.4  Rx         0004  8  00 00 00 00 00 00 00 00 
   202)        88.5  Rx         0005  8  00 00 00 00 00 00 01 76 
   203)        88.7  Rx     00000801  8  00 00 00 7F FF 80 08 00 
   204)        88.8  Rx     00000802  8  00 00 00 7F FF 80 08 00 
   205)        89.6  Rx     00002901  8  FC 43 00 00 00 00 16 00 
   206)        90.0  Rx     00002902  8  00 2D 00 00 FF FF 16 00 
   207)        91.6  Rx     00002901  8  FC 43 00 00 FF FE 16 00 
   208)        91.9  Rx     00002902  8  00 2D 00 00 FF F7 16 00 
   209)        92.3  Rx         0003  8  F9 7A 00 4E F9 7A 00 4E 
   210)        92.5  Rx         0004  8  00 00 00 00 00 00 00 00 
   211)        92.5  Rx         0005  8  00 00 00 00 00 00 01 76 
   212)        92.7  Rx     00000801  8  00 00 00 7F FF 80 08 00 
   213)        92.8  Rx     00000802  8  00 00 00 7F FF 80 08 00 
   214)        93.6  Rx     00002901  8  FC 43 00 00 00 00 16 00 
   215)        93.9  Rx     00002902  8  00 2D 00 00 FF FF 16 00 
   216)        95.6  Rx     00002901  8  FC 43 00 00 FF FF 16 00 
   217)        95.9  Rx     00002902  8  00 2D 00 00 FF FE 16 00 
   218)        96.3  Rx         0003  8  F9 7A 00 4E F9 7A 00 4E 
   219)        96.4  Rx         0004  8  00 00 00 00 00 00 00 00 
   220)        96.5  Rx         0005  8  00 00 00 00 00 00 01 76 
   221)        96.7  Rx     00000801  8  00 00 00 7F FF 80 08 00 
   222)        96.8  Rx     00000802  8  00 00 00 7F FF 80 08 00 
   223)        97.6  Rx     00002901  8  FC 43 00 00 FF FF 16 00 
   224)        98.0  Rx     00002902  8  00 2D 00 00 FF F8 16 00 
   225)        99.6  Rx     00002901  8  FC 43 00 00 FF FF 16 00 
   226)       100.0  Rx     00002902  8  00 2D 00 00 FF FB 16 00 
   227)       100.3  Rx         0003  8  F9 7A 00 4E F9 7A 00 4E 
   228)       100.4  Rx         0004  8  00 00 00 00 00 00 00 00 
   229)       100.6  Rx         0005  8  00 00 00 00 00 00 01 75 
   230)       100.7  Rx     00000801  8  00 00 00 7F FF 80 08 00 
   231)       100.9  Rx     00000802  8  00 00 00 7F FF 80 08 00 
   232)       101.6  Rx     00002901  8  FC 43 00 00 00 00 16 00 
   233)       102.0  Rx     00002902  8  00 2D 00 00 FF FA 16 00 
   234)       103.6  Rx     00002901  8  FC 43 00 00 FF FF 16 00 
   235)       103.9  Rx     00002902  8  00 2D 00 00 FF FA 16 00 
   236)       104.3  Rx         0003  8  F9 7A 00 4E F9 7A 00 4E 
   237)       104.4  Rx         0004  8  00 00 00 00 00 00 00 00 
   238)       104.5  Rx         0005  8  00 00 00 00 00 00 01 75 
   239)       104.7  Rx     00000801  8  00 00 00 7F FF 80 08 00 
   240)       104.8  Rx     00000802  8  00 00 00 7F FF 80 08 00 
   241)       105.6  Rx     00002901  8  FC 43 00 00 FF FF 16 00 
   242)       106.0  Rx     00002902  8  00 2D 00 00 FF FE 16 00 
   243)       107.6  Rx     00002901  8  FC 43 00 00 FF FF 16 00 
   244)       107.9  Rx     00002902  8  00 2D 00 00 FF F7 16 00 
   245)       108.3  Rx         0003  8  F9 7A 00 4E F9 7A 00 4E 
   246)       108.5  Rx         0004  8  00 00 00 00 00 00 00 00 
   247)       108.5  Rx         0005  8  00 00 00 00 00 00 01 75 
   248)       108.7  Rx     00000801  8  00 00 00 7F FF 80 08 00 
   249)       108.8  Rx     00000802  8  00 00 00 7F FF 80 08 00 
   250)       109.6  Rx     00002901  8  FC 43 00 00 FF FE 16 00 
   251)       109.9  Rx     00002902  8  00 2D 00 00 FF FC 16 00 
   252)       111.6  Rx     00002901  8  FC 43 00 00 FF FF 16 00 
   253)       111.9  Rx     00002902  8  00 2D 00 00 FF F7 16 00 
   254)       112.3  Rx         0003  8  F9 7A 00 4E F9 7A 00 4E 
   255)       112.4  Rx         0004  8  00 00 00 00 00 00 00 00 
   256)       112.5  Rx         0005  8  00 00 00 00 00 00 01 76 
   257)       112.7  Rx     00000801  8  00 00 00 7F FF 80 08 00 
   258)       112.8  Rx     00000802  8  00 00 00 7F FF 80 08 00 
   259)       113.6  Rx     00002901  8  FC 43 00 00 FF FF 16 00 
   260)       114.0  Rx     00002902  8  00 2D 00 00 FF FD 16 00 
   261)       115.6  Rx     00002901  8  FC 43 00 00 FF FF 16 00 
   262)       116.0  Rx     00002902  8  00 2D 00 00 FF FA 16 00 
   263)       116.3  Rx         0003  8  F9 7A 00 4E F9 7A 00 4E 
   264)       116.4  Rx         0004  8  00 00 00 00 00 00 00 00 
   265)       116.6  Rx         0005  8  00 00 00 00 00 00 01 75 
   266)       116.7  Rx     00000801  8  00 00 00 7F FF 80 08 00 
   267)       116.9  Rx     00000802  8  00 00 00 7F FF 80 08 00 
   268)       117.6  Rx     00002901  8  FC 43 00 00 FF FF 16 00 
   269)       118.0  Rx     00002902  8  00 2D 00 00 00 00 16 00 
   270)       119.6  Rx     00002901  8  FC 43 00 00 00 00 16 00 
   271)       120.0  Rx     00002902  8  00 2D 00 00 FF F7 16 00 
   272)       120.3  Rx         0003  8  F9 7A 00 4E F9 7A 00 4E 
   273)       120.4  Rx         0004  8  00 00 00 00 00 00 00 00 
   274)       120.5  Rx         0005  8  00 00 00 00 00 00 01 75 
   275)       120.7  Rx     00000801  8  00 00 00 7F FF 80 08 00 
   276)       120.8  Rx     00000802  8  00 00 00 7F FF 80 08 00 
   277)       121.6  Rx     00002901  8  FC 43 00 00 FF FF 16 00 
   278)       122.0  Rx     00002902  8  00 2D 00 00 FF FE 16 00 
   279)       123.6  Rx     00002901  8  FC 43 00 00 FF FF 16 00 
   280)       123.9  Rx     00002902  8  00 2D 00 00 FF FA 16 00 
   281)       124.3  Rx         0003  8  F9 7A 00 4E F9 7A 00 4E 
   282)       124.5  Rx         0004  8  00 00 00 00 00 00 00 00 
   283)       124.5  Rx         0005  8  00 00 00 00 00 00 01 75 
   284)       124.7  Rx     00000801  8  00 00 00 7F FF 80 08 00 
   285)       124.8  Rx     00000802  8  00 00 00 7F FF 80 08 00 
   286)       125.6  Rx     00002901  8  FC 43 00 00 FF FF 16 00 
   287)       125.9  Rx     00002902  8  00 2D 00 00 FF FB 16 00 
   288)       127.6  Rx     00002901  8  FC 43 00 00 FF FF 16 00 
   289)       127.9  Rx     00002902  8  00 2D 00 00 FF F9 16 00 
   290)       128.3  Rx         0003  8  F9 7A 00 4E F9 7A 00 4E 
   291)       128.4  Rx         0004  8  00 00 00 00 00 00 00 00 
   292)       128.5  Rx         0005  8  00 00 00 00 00 00 01 76 
   293)       128.7  Rx     00000801  8  00 00 00 7F FF 80 08 00 
   294)       128.8  Rx     00000802  8  00 00 00 7F FF 80 08 00 
   295)       129.6  Rx     00002901  8  FC 43 00 00 FF FF 16 00 
   296)       130.0  Rx     00002902  8  00 2D 00 00 FF FF 16 00 
   297)       131.6  Rx     00002901  8  FC 43 00 00 FF FF 16 00 
   298)       132.0  Rx     00002902  8  00 2D 00 00 FF F7 16 00 
   299)       132.3  Rx         0003  8  F9 7A 00 4E F9 7A 00 4E 
   300)       132.4  Rx         0004  8  00 00 00 00 00 00 00 00 
   301)       132.6  Rx         0005  8  00 00 00 00 00 00 01 75 
   302)       132.7  Rx     00000801  8  00 00 00 7F FF 80 08 00 
   303)       132.9  Rx     00000802  8  00 00 00 7F FF 80 08 00 
   304)       133.6  Rx     00002901  8  FC 43 00 00 00 00 16 00 
   305)       134.0  Rx     00002902  8  00 2D 00 00 00 00 16 00 
   306)       135.6  Rx     00002901  8  FC 43 00 00 FF FF 16 00 
   307)       136.0  Rx     00002902  8  00 2D 00 00 FF FC 16 00 
   308)       136.3  Rx         0003  8  F9 7A 00 4E F9 7A 00 4E 
   309)       136.4  Rx         0004  8  00 00 00 00 00 00 00 00 
   310)       136.5  Rx         0005  8  00 00 00 00 00 00 01 76 
   311)       136.7  Rx     00000801  8  00 00 00 7F FF 80 08 00 
   312)       136.8  Rx     00000802  8  00 00 00 7F FF 80 08 00 
   313)       137.6  Rx     00002901  8  FC 43 00 00 FF FF 16 00 
   314)       138.0  Rx     00002902  8  00 2D 00 00 FF FF 16 00 
   315)       139.6  Rx     00002901  8  FC 43 00 00 FF FF 16 00 
   316)       139.9  Rx     00002902  8  00 2D 00 00 FF F7 16 00 
   317)       140.3  Rx         0003  8  F9 7A 00 4E F9 7A 00 4E 
   318)       140.5  Rx         0004  8  00 00 00 00 00 00 00 00 
   319)       140.5  Rx         0005  8  00 00 00 00 00 00 01 75 
   320)       140.7  Rx     00000801  8  00 00 00 7F FF 80 08 00 
   321)       140.8  Rx     00000802  8  00 00 00 7F FF 80 08 00 
   322)       141.6  Rx     00002901  8  FC 43 00 00 FF FF 16 00 
   323)       141.9  Rx     00002902  8  00 2D 00 00 FF FC 16 00 
   324)       143.6  Rx     00002901  8  FC 43 00 00 FF FE 16 00 
   325)       143.9  Rx     00002902  8  00 2D 00 00 FF F5 16 00 
   326)       144.3  Rx         0003  8  F9 7A 00 4E F9 7A 00 4E 
   327)       144.4  Rx         0004  8  00 00 00 00 00 00 00 00 
   328)       144.5  Rx         0005  8  00 00 00 00 00 00 01 75 
   329)       144.7  Rx     00000801  8  00 00 00 7F FF 80 08 00 
   330)       144.8  Rx     00000802  8  00 00 00 7F FF 80 08 00 
   331)       145.6  Rx     00002901  8  FC 43 00 00 FF FF 16 00 
   332)       146.0  Rx     00002902  8  00 2D 00 00 00 02 16 00 
   333)       147.6  Rx     00002901  8  FC 43 00 00 FF FF 16 00 
   334)       148.0  Rx     00002902  8  00 2D 00 00 FF FF 16 00 
   335)       148.3  Rx         0003  8  F9 7A 00 4E F9 7A 00 4E 
   336)       148.4  Rx         0004  8  00 00 00 00 00 00 00 00 
   337)       148.6  Rx         0005  8  00 00 00 00 00 00 01 75 
   338)       148.7  Rx     00000801  8  00 00 00 7F FF 80 08 00 
   339)       148.9  Rx     00000802  8  00 00 00 7F FF 80 08 00 
   340)       149.6  Rx     00002901  8  FC 43 00 00 FF FF 16 00 
   341)       150.0  Rx     00002902  8  00 2D 00 00 00 02 16 00 
   342)       151.6  Rx     00002901  8  FC 43 00 00 FF FF 16 00 
   343)       151.9  Rx     00002902  8  00 2D 00 00 FF F8 16 00 
   344)       152.3  Rx         0003  8  F9 7A 00 4E F9 7A 00 4E 
   345)       152.4  Rx         0004  8  00 00 00 00 00 00 00 00 
   346)       152.5  Rx         0005  8  00 00 00 00 00 00 01 75 
   347)       152.7  Rx     00000801  8  00 00 00 7F FF 80 08 00 
   348)       152.9  Rx     00000802  8  00 00 00 7F FF 80 08 00 
   349)       153.6  Rx     00002901  8  FC 43 00 00 FF FF 16 00 
   350)       154.0  Rx     00002902  8  00 2D 00 00 FF FC 16 00 
   351)       155.6  Rx     00002901  8  FC 43 00 00 FF FF 16 00 
   352)       155.9  Rx     00002902  8  00 2D 00 00 FF FC 16 00 
   353)       156.3  Rx         0003  8  F9 7A 00 4E F9 7A 00 4E 
   354)       156.4  Rx         0004  8  00 00 00 00 00 00 00 00 
   355)       156.5  Rx         0005  8  00 00 00 00 00 00 01 76 
   356)       156.7  Rx     00000801  8  00 00 00 7F FF 80 08 00 
   357)       156.8  Rx     00000802  8  00 00 00 7F FF 80 08 00 
   358)       157.6  Rx     00002901  8  FC 43 00 00 FF FF 16 00 
   359)       157.9  Rx     00002902  8  00 2D 00 00 FF FB 16 00 
   360)       159.6  Rx     00002901  8  FC 43 00 00 FF FF 16 00 
   361)       159.9  Rx     00002902  8  00 2D 00 00 FF FE 16 00 
   362)       160.3  Rx         0003  8  F9 7A 00 4E F9 7A 00 4E 
   363)       160.4  Rx         0004  8  00 00 00 00 00 00 00 00 
   364)       160.5  Rx         0005  8  00 00 00 00 00 00 01 75 
   365)       160.7  Rx     00000801  8  00 00 00 7F FF 80 08 00 
   366)       160.8  Rx     00000802  8  00 00 00 7F FF 80 08 00 
   367)       161.6  Rx     00002901  8  FC 43 00 00 00 00 16 00 
   368)       162.0  Rx     00002902  8  00 2D 00 00 FF F8 16 00 
   369)       163.6  Rx     00002901  8  FC 43 00 00 FF FF 16 00 
   370)       164.0  Rx     00002902  8  00 2D 00 00 FF F9 16 00 
   371)       164.3  Rx         0003  8  F9 7A 00 4E F9 7A 00 4E 
