;$FILEVERSION=1.1
;$STARTTIME=45802.0061137153
;
;   Start time: 5/25/2025 00:08:48.225.0
;   Generated by PCAN-View v5.3.2.952
;
;   Message Number
;   |         Time Offset (ms)
;   |         |        Type
;   |         |        |        ID (hex)
;   |         |        |        |     Data Length
;   |         |        |        |     |   Data Bytes (hex) ...
;   |         |        |        |     |   |
;---+--   ----+----  --+--  ----+---  +  -+ -- -- -- -- -- -- --
     1)         4.5  Rx     00002902  8  00 85 00 00 00 00 23 00 
     2)         4.7  Rx     00002901  8  FC 25 00 00 FF FA 24 00 
     3)         5.4  Rx         0003  8  F9 46 00 E8 F9 46 00 E8 
     4)         5.6  Rx         0004  8  00 00 00 00 00 00 00 00 
     5)         5.7  Rx         0005  8  00 00 00 00 00 00 01 72 
     6)         5.9  Rx     00000801  8  00 00 00 7F FF 80 08 00 
     7)         6.0  Rx     00000802  8  00 00 00 7F FF 80 08 00 
     8)         6.5  Rx     00002902  8  00 85 00 00 00 03 23 00 
     9)         6.7  Rx     00002901  8  FC 25 00 00 FF FC 24 00 
    10)         8.5  Rx     00002902  8  00 85 00 00 00 00 23 00 
    11)         8.7  Rx     00002901  8  FC 25 00 00 FF FB 24 00 
    12)         9.4  Rx         0003  8  F9 46 00 E8 F9 46 00 E8 
    13)         9.6  Rx         0004  8  00 00 00 00 00 00 00 00 
    14)         9.7  Rx         0005  8  00 00 00 00 00 00 01 72 
    15)         9.8  Rx     00000801  8  00 00 00 7F FF 80 08 00 
    16)        10.0  Rx     00000802  8  00 00 00 7F FF 80 08 00 
    17)        10.5  Rx     00002902  8  00 85 00 00 00 02 23 00 
    18)        10.7  Rx     00002901  8  FC 25 00 00 FF FC 24 00 
    19)        12.5  Rx     00002902  8  00 85 00 00 00 01 23 00 
    20)        12.7  Rx     00002901  8  FC 25 00 00 FF F9 24 00 
    21)        13.4  Rx         0003  8  F9 46 00 E8 F9 46 00 E8 
    22)        13.6  Rx         0004  8  00 00 00 00 00 00 00 00 
    23)        13.7  Rx         0005  8  00 00 00 00 00 00 01 73 
    24)        13.8  Rx     00000801  8  00 00 00 7F FF 80 08 00 
    25)        14.0  Rx     00000802  8  00 00 00 7F FF 80 08 00 
    26)        14.5  Rx     00002902  8  00 85 00 00 00 03 23 00 
    27)        14.7  Rx     00002901  8  FC 25 00 00 FF FA 24 00 
    28)        16.5  Rx     00002902  8  00 85 00 00 00 00 23 00 
    29)        16.7  Rx     00002901  8  FC 25 00 00 FF F8 24 00 
    30)        17.4  Rx         0003  8  F9 46 00 E8 F9 46 00 E8 
    31)        17.5  Rx         0004  8  00 00 00 00 00 00 00 00 
    32)        17.7  Rx         0005  8  00 00 00 00 00 00 01 73 
    33)        17.8  Rx     00000801  8  00 00 00 7F FF 80 08 00 
    34)        18.0  Rx     00000802  8  00 00 00 7F FF 80 08 00 
    35)        18.5  Rx     00002902  8  00 85 00 00 00 02 23 00 
    36)        18.7  Rx     00002901  8  FC 25 00 00 FF F9 24 00 
    37)        20.5  Rx     00002902  8  00 85 00 00 00 02 23 00 
    38)        20.7  Rx     00002901  8  FC 25 00 00 FF FB 24 00 
    39)        21.4  Rx         0003  8  F9 46 00 E8 F9 46 00 E8 
    40)        21.6  Rx         0004  8  00 00 00 00 00 00 00 00 
    41)        21.7  Rx         0005  8  00 00 00 00 00 00 01 73 
    42)        21.8  Rx     00000801  8  00 00 00 7F FF 80 08 00 
    43)        22.0  Rx     00000802  8  00 00 00 7F FF 80 08 00 
    44)        22.5  Rx     00002902  8  00 85 00 00 00 02 23 00 
    45)        22.7  Rx     00002901  8  FC 25 00 00 FF FA 24 00 
    46)        24.5  Rx     00002902  8  00 85 00 00 00 02 23 00 
    47)        24.7  Rx     00002901  8  FC 25 00 00 FF F9 24 00 
    48)        25.4  Rx         0003  8  F9 46 00 E8 F9 46 00 E8 
    49)        25.6  Rx         0004  8  00 00 00 00 00 00 00 00 
    50)        25.7  Rx         0005  8  00 00 00 00 00 00 01 74 
    51)        25.8  Rx     00000801  8  00 00 00 7F FF 80 08 00 
    52)        26.0  Rx     00000802  8  00 00 00 7F FF 80 08 00 
    53)        26.5  Rx     00002902  8  00 85 00 00 00 02 23 00 
    54)        26.7  Rx     00002901  8  FC 25 00 00 FF FB 24 00 
    55)        28.5  Rx     00002902  8  00 85 00 00 00 01 23 00 
    56)        28.7  Rx     00002901  8  FC 25 00 00 FF FB 24 00 
    57)        29.4  Rx         0003  8  F9 46 00 E8 F9 46 00 E8 
    58)        29.5  Rx         0004  8  00 00 00 00 00 00 00 00 
    59)        29.7  Rx         0005  8  00 00 00 00 00 00 01 73 
    60)        29.8  Rx     00000801  8  00 00 00 7F FF 80 08 00 
    61)        30.0  Rx     00000802  8  00 00 00 7F FF 80 08 00 
    62)        30.5  Rx     00002902  8  00 85 00 00 00 03 23 00 
    63)        30.7  Rx     00002901  8  FC 25 00 00 FF FB 24 00 
    64)        32.5  Rx     00002902  8  00 85 00 00 00 01 23 00 
    65)        32.6  Rx     00002901  8  FC 25 00 00 FF F9 24 00 
    66)        33.4  Rx         0003  8  F9 46 00 E8 F9 46 00 E8 
    67)        33.6  Rx         0004  8  00 00 00 00 00 00 00 00 
    68)        33.7  Rx         0005  8  00 00 00 00 00 00 01 74 
    69)        33.8  Rx     00000801  8  00 00 00 7F FF 80 08 00 
    70)        34.0  Rx     00000802  8  00 00 00 7F FF 80 08 00 
    71)        34.5  Rx     00002902  8  00 85 00 00 00 02 23 00 
    72)        34.7  Rx     00002901  8  FC 25 00 00 FF FD 24 00 
    73)        36.5  Rx     00002902  8  00 85 00 00 00 00 23 00 
    74)        36.7  Rx     00002901  8  FC 25 00 00 FF F7 24 00 
    75)        37.4  Rx         0003  8  F9 46 00 E8 F9 46 00 E8 
    76)        37.6  Rx         0004  8  00 00 00 00 00 00 00 00 
    77)        37.7  Rx         0005  8  00 00 00 00 00 00 01 73 
    78)        37.9  Rx     00000801  8  00 00 00 7F FF 80 08 00 
    79)        38.0  Rx     00000802  8  00 00 00 7F FF 80 08 00 
    80)        38.5  Rx     00002902  8  00 85 00 00 00 02 23 00 
    81)        38.7  Rx     00002901  8  FC 25 00 00 FF FA 24 00 
    82)        40.5  Rx     00002902  8  00 85 00 00 00 00 23 00 
    83)        40.7  Rx     00002901  8  FC 25 00 00 FF FA 24 00 
    84)        41.4  Rx         0003  8  F9 46 00 E8 F9 46 00 E8 
    85)        41.6  Rx         0004  8  00 00 00 00 00 00 00 00 
    86)        41.7  Rx         0005  8  00 00 00 00 00 00 01 74 
    87)        41.8  Rx     00000801  8  00 00 00 7F FF 80 08 00 
    88)        42.0  Rx     00000802  8  00 00 00 7F FF 80 08 00 
    89)        42.5  Rx     00002902  8  00 85 00 00 00 02 23 00 
    90)        42.7  Rx     00002901  8  FC 25 00 00 FF F9 24 00 
    91)        44.5  Rx     00002902  8  00 85 00 00 00 00 23 00 
    92)        44.7  Rx     00002901  8  FC 25 00 00 FF FB 24 00 
    93)        45.4  Rx         0003  8  F9 46 00 E8 F9 46 00 E8 
    94)        45.6  Rx         0004  8  00 00 00 00 00 00 00 00 
    95)        45.7  Rx         0005  8  00 00 00 00 00 00 01 73 
    96)        45.8  Rx     00000801  8  00 00 00 7F FF 80 08 00 
    97)        46.0  Rx     00000802  8  00 00 00 7F FF 80 08 00 
    98)        46.5  Rx     00002902  8  00 85 00 00 00 01 23 00 
    99)        46.7  Rx     00002901  8  FC 25 00 00 FF F9 24 00 
   100)        48.5  Rx     00002902  8  00 85 00 00 00 02 23 00 
   101)        48.7  Rx     00002901  8  FC 25 00 00 FF F8 24 00 
   102)        49.4  Rx         0003  8  F9 46 00 E8 F9 46 00 E8 
   103)        49.6  Rx         0004  8  00 00 00 00 00 00 00 00 
   104)        49.7  Rx         0005  8  00 00 00 00 00 00 01 74 
   105)        49.8  Rx     00000801  8  00 00 00 7F FF 80 08 00 
   106)        50.0  Rx     00000802  8  00 00 00 7F FF 80 08 00 
   107)        50.5  Rx     00002902  8  00 85 00 00 00 02 23 00 
   108)        50.7  Rx     00002901  8  FC 25 00 00 FF FB 24 00 
   109)        52.5  Rx     00002902  8  00 85 00 00 00 01 23 00 
   110)        52.7  Rx     00002901  8  FC 25 00 00 FF FB 24 00 
   111)        53.4  Rx         0003  8  F9 46 00 E8 F9 46 00 E8 
   112)        53.6  Rx         0004  8  00 00 00 00 00 00 00 00 
   113)        53.7  Rx         0005  8  00 00 00 00 00 00 01 73 
   114)        53.8  Rx     00000801  8  00 00 00 7F FF 80 08 00 
   115)        54.0  Rx     00000802  8  00 00 00 7F FF 80 08 00 
   116)        54.5  Rx     00002902  8  00 85 00 00 00 02 23 00 
   117)        54.7  Rx     00002901  8  FC 25 00 00 FF FA 24 00 
   118)        56.5  Rx     00002902  8  00 85 00 00 00 00 23 00 
   119)        56.7  Rx     00002901  8  FC 25 00 00 FF FB 24 00 
   120)        57.4  Rx         0003  8  F9 46 00 E8 F9 46 00 E8 
   121)        57.6  Rx         0004  8  00 00 00 00 00 00 00 00 
   122)        57.7  Rx         0005  8  00 00 00 00 00 00 01 74 
   123)        57.8  Rx     00000801  8  00 00 00 7F FF 80 08 00 
   124)        58.0  Rx     00000802  8  00 00 00 7F FF 80 08 00 
   125)        58.5  Rx     00002902  8  00 85 00 00 00 04 23 00 
   126)        58.7  Rx     00002901  8  FC 25 00 00 FF FA 24 00 
   127)        60.5  Rx     00002902  8  00 85 00 00 00 01 23 00 
   128)        60.7  Rx     00002901  8  FC 25 00 00 FF F9 24 00 
   129)        61.4  Rx         0003  8  F9 46 00 E8 F9 46 00 E8 
   130)        61.6  Rx         0004  8  00 00 00 00 00 00 00 00 
   131)        61.7  Rx         0005  8  00 00 00 00 00 00 01 73 
   132)        61.8  Rx     00000801  8  00 00 00 7F FF 80 08 00 
   133)        62.0  Rx     00000802  8  00 00 00 7F FF 80 08 00 
   134)        62.5  Rx     00002902  8  00 85 00 00 00 03 23 00 
   135)        62.7  Rx     00002901  8  FC 25 00 00 FF FB 24 00 
   136)        64.5  Rx     00002902  8  00 85 00 00 00 00 23 00 
   137)        64.7  Rx     00002901  8  FC 25 00 00 FF F8 24 00 
   138)        65.4  Rx         0003  8  F9 46 00 E8 F9 46 00 E8 
   139)        65.5  Rx         0004  8  00 00 00 00 00 00 00 00 
   140)        65.7  Rx         0005  8  00 00 00 00 00 00 01 73 
   141)        65.8  Rx     00000801  8  00 00 00 7F FF 80 08 00 
   142)        66.0  Rx     00000802  8  00 00 00 7F FF 80 08 00 
   143)        66.5  Rx     00002902  8  00 85 00 00 00 01 23 00 
   144)        66.7  Rx     00002901  8  FC 25 00 00 FF FA 24 00 
   145)        68.5  Rx     00002902  8  00 85 00 00 00 01 23 00 
   146)        68.7  Rx     00002901  8  FC 25 00 00 FF FA 24 00 
   147)        69.4  Rx         0003  8  F9 46 00 E8 F9 46 00 E8 
   148)        69.6  Rx         0004  8  00 00 00 00 00 00 00 00 
   149)        69.7  Rx         0005  8  00 00 00 00 00 00 01 73 
   150)        69.9  Rx     00000801  8  00 00 00 7F FF 80 08 00 
   151)        70.0  Rx     00000802  8  00 00 00 7F FF 80 08 00 
   152)        70.5  Rx     00002902  8  00 85 00 00 00 02 23 00 
   153)        70.7  Rx     00002901  8  FC 25 00 00 FF F9 24 00 
   154)        72.5  Rx     00002902  8  00 85 00 00 00 01 23 00 
   155)        72.7  Rx     00002901  8  FC 25 00 00 FF F9 24 00 
   156)        73.4  Rx         0003  8  F9 46 00 E8 F9 46 00 E8 
   157)        73.6  Rx         0004  8  00 00 00 00 00 00 00 00 
   158)        73.7  Rx         0005  8  00 00 00 00 00 00 01 73 
   159)        73.9  Rx     00000801  8  00 00 00 7F FF 80 08 00 
   160)        74.0  Rx     00000802  8  00 00 00 7F FF 80 08 00 
   161)        74.5  Rx     00002902  8  00 85 00 00 00 02 23 00 
   162)        74.7  Rx     00002901  8  FC 25 00 00 FF FC 24 00 
   163)        76.5  Rx     00002902  8  00 85 00 00 00 01 23 00 
   164)        76.7  Rx     00002901  8  FC 25 00 00 FF FB 24 00 
   165)        77.4  Rx         0003  8  F9 46 00 E8 F9 46 00 E8 
   166)        77.6  Rx         0004  8  00 00 00 00 00 00 00 00 
   167)        77.7  Rx         0005  8  00 00 00 00 00 00 01 73 
   168)        77.8  Rx     00000801  8  00 00 00 7F FF 80 08 00 
   169)        78.0  Rx     00000802  8  00 00 00 7F FF 80 08 00 
   170)        78.5  Rx     00002902  8  00 85 00 00 00 03 23 00 
   171)        78.7  Rx     00002901  8  FC 25 00 00 FF FB 24 00 
   172)        80.5  Rx     00002902  8  00 85 00 00 00 03 23 00 
   173)        80.7  Rx     00002901  8  FC 25 00 00 FF F9 24 00 
   174)        81.4  Rx         0003  8  F9 46 00 E8 F9 46 00 E8 
   175)        81.6  Rx         0004  8  00 00 00 00 00 00 00 00 
   176)        81.7  Rx         0005  8  00 00 00 00 00 00 01 73 
   177)        81.8  Rx     00000801  8  00 00 00 7F FF 80 08 00 
   178)        82.0  Rx     00000802  8  00 00 00 7F FF 80 08 00 
   179)        82.5  Rx     00002902  8  00 85 00 00 00 02 23 00 
   180)        82.7  Rx     00002901  8  FC 25 00 00 FF F9 24 00 
   181)        84.5  Rx     00002902  8  00 85 00 00 00 00 23 00 
   182)        84.7  Rx     00002901  8  FC 25 00 00 FF F8 24 00 
   183)        85.4  Rx         0003  8  F9 46 00 E8 F9 46 00 E8 
   184)        85.6  Rx         0004  8  00 00 00 00 00 00 00 00 
   185)        85.7  Rx         0005  8  00 00 00 00 00 00 01 74 
   186)        85.9  Rx     00000801  8  00 00 00 7F FF 80 08 00 
   187)        86.0  Rx     00000802  8  00 00 00 7F FF 80 08 00 
   188)        86.5  Rx     00002902  8  00 85 00 00 00 02 23 00 
   189)        86.7  Rx     00002901  8  FC 25 00 00 FF FB 24 00 
   190)        88.5  Rx     00002902  8  00 85 00 00 00 00 23 00 
   191)        88.7  Rx     00002901  8  FC 25 00 00 FF F9 24 00 
   192)        89.4  Rx         0003  8  F9 46 00 E8 F9 46 00 E8 
   193)        89.6  Rx         0004  8  00 00 00 00 00 00 00 00 
   194)        89.7  Rx         0005  8  00 00 00 00 00 00 01 73 
   195)        89.8  Rx     00000801  8  00 00 00 7F FF 80 08 00 
   196)        90.0  Rx     00000802  8  00 00 00 7F FF 80 08 00 
   197)        90.5  Rx     00002902  8  00 85 00 00 00 02 23 00 
   198)        90.7  Rx     00002901  8  FC 25 00 00 FF F9 24 00 
   199)        92.5  Rx     00002902  8  00 85 00 00 00 00 23 00 
   200)        92.7  Rx     00002901  8  FC 25 00 00 FF FA 24 00 
   201)        93.4  Rx         0003  8  F9 46 00 E8 F9 46 00 E8 
   202)        93.6  Rx         0004  8  00 00 00 00 00 00 00 00 
   203)        93.7  Rx         0005  8  00 00 00 00 00 00 01 74 
   204)        93.8  Rx     00000801  8  00 00 00 7F FF 80 08 00 
   205)        94.0  Rx     00000802  8  00 00 00 7F FF 80 08 00 
   206)        94.5  Rx     00002902  8  00 85 00 00 00 02 23 00 
   207)        94.7  Rx     00002901  8  FC 25 00 00 FF FA 24 00 
   208)        96.5  Rx     00002902  8  00 85 00 00 00 00 23 00 
   209)        96.7  Rx     00002901  8  FC 25 00 00 FF FB 24 00 
   210)        97.4  Rx         0003  8  F9 46 00 E8 F9 46 00 E8 
   211)        97.5  Rx         0004  8  00 00 00 00 00 00 00 00 
   212)        97.7  Rx         0005  8  00 00 00 00 00 00 01 73 
   213)        97.8  Rx     00000801  8  00 00 00 7F FF 80 08 00 
   214)        98.0  Rx     00000802  8  00 00 00 7F FF 80 08 00 
   215)        98.5  Rx     00002902  8  00 85 00 00 00 03 23 00 
   216)        98.7  Rx     00002901  8  FC 25 00 00 FF F9 24 00 
   217)       100.5  Rx     00002902  8  00 85 00 00 00 00 23 00 
   218)       100.7  Rx     00002901  8  FC 25 00 00 FF FA 24 00 
   219)       101.4  Rx         0003  8  F9 46 00 E8 F9 46 00 E8 
   220)       101.6  Rx         0004  8  00 00 00 00 00 00 00 00 
   221)       101.7  Rx         0005  8  00 00 00 00 00 00 01 74 
   222)       101.9  Rx     00000801  8  00 00 00 7F FF 80 08 00 
   223)       102.0  Rx     00000802  8  00 00 00 7F FF 80 08 00 
   224)       102.5  Rx     00002902  8  00 85 00 00 00 01 23 00 
   225)       102.7  Rx     00002901  8  FC 25 00 00 FF FC 24 00 
   226)       104.5  Rx     00002902  8  00 85 00 00 00 00 23 00 
   227)       104.7  Rx     00002901  8  FC 25 00 00 FF FA 24 00 
   228)       105.4  Rx         0003  8  F9 46 00 E8 F9 46 00 E8 
   229)       105.6  Rx         0004  8  00 00 00 00 00 00 00 00 
   230)       105.7  Rx         0005  8  00 00 00 00 00 00 01 73 
   231)       105.8  Rx     00000801  8  00 00 00 7F FF 80 08 00 
   232)       106.0  Rx     00000802  8  00 00 00 7F FF 80 08 00 
   233)       106.5  Rx     00002902  8  00 85 00 00 00 03 23 00 
   234)       106.7  Rx     00002901  8  FC 25 00 00 FF FD 24 00 
   235)       108.5  Rx     00002902  8  00 85 00 00 00 00 23 00 
   236)       108.7  Rx     00002901  8  FC 25 00 00 FF F9 24 00 
   237)       109.4  Rx         0003  8  F9 46 00 E8 F9 46 00 E8 
   238)       109.5  Rx         0004  8  00 00 00 00 00 00 00 00 
   239)       109.7  Rx         0005  8  00 00 00 00 00 00 01 74 
   240)       109.8  Rx     00000801  8  00 00 00 7F FF 80 08 00 
   241)       110.0  Rx     00000802  8  00 00 00 7F FF 80 08 00 
   242)       110.5  Rx     00002902  8  00 85 00 00 00 02 23 00 
   243)       110.7  Rx     00002901  8  FC 25 00 00 FF F9 24 00 
   244)       112.5  Rx     00002902  8  00 85 00 00 00 01 23 00 
   245)       112.7  Rx     00002901  8  FC 25 00 00 FF FA 24 00 
   246)       113.5  Rx         0003  8  F9 46 00 E8 F9 46 00 E8 
   247)       113.5  Rx         0004  8  00 00 00 00 00 00 00 00 
   248)       113.7  Rx         0005  8  00 00 00 00 00 00 01 73 
   249)       113.8  Rx     00000801  8  00 00 00 7F FF 80 08 00 
   250)       114.0  Rx     00000802  8  00 00 00 7F FF 80 08 00 
   251)       114.5  Rx     00002902  8  00 85 00 00 00 02 23 00 
   252)       114.7  Rx     00002901  8  FC 25 00 00 FF F8 24 00 
   253)       116.5  Rx     00002902  8  00 85 00 00 00 01 23 00 
   254)       116.7  Rx     00002901  8  FC 25 00 00 FF F8 24 00 
   255)       117.4  Rx         0003  8  F9 46 00 E8 F9 46 00 E8 
   256)       117.6  Rx         0004  8  00 00 00 00 00 00 00 00 
   257)       117.7  Rx         0005  8  00 00 00 00 00 00 01 74 
   258)       117.9  Rx     00000801  8  00 00 00 7F FF 80 08 00 
   259)       118.0  Rx     00000802  8  00 00 00 7F FF 80 08 00 
   260)       118.5  Rx     00002902  8  00 85 00 00 00 00 23 00 
   261)       118.7  Rx     00002901  8  FC 25 00 00 FF FB 24 00 
   262)       120.5  Rx     00002902  8  00 85 00 00 00 02 23 00 
   263)       120.7  Rx     00002901  8  FC 25 00 00 FF F9 24 00 
   264)       121.4  Rx         0003  8  F9 46 00 E8 F9 46 00 E8 
   265)       121.6  Rx         0004  8  00 00 00 00 00 00 00 00 
   266)       121.7  Rx         0005  8  00 00 00 00 00 00 01 73 
   267)       121.9  Rx     00000801  8  00 00 00 7F FF 80 08 00 
   268)       122.0  Rx     00000802  8  00 00 00 7F FF 80 08 00 
   269)       122.5  Rx     00002902  8  00 85 00 00 00 03 23 00 
   270)       122.7  Rx     00002901  8  FC 25 00 00 FF F9 24 00 
   271)       124.5  Rx     00002902  8  00 85 00 00 00 00 23 00 
   272)       124.7  Rx     00002901  8  FC 25 00 00 FF FB 24 00 
   273)       125.4  Rx         0003  8  F9 46 00 E8 F9 46 00 E8 
   274)       125.6  Rx         0004  8  00 00 00 00 00 00 00 00 
   275)       125.7  Rx         0005  8  00 00 00 00 00 00 01 74 
   276)       125.8  Rx     00000801  8  00 00 00 7F FF 80 08 00 
   277)       126.0  Rx     00000802  8  00 00 00 7F FF 80 08 00 
   278)       126.6  Rx     00002902  8  00 85 00 00 00 03 23 00 
   279)       126.7  Rx     00002901  8  FC 25 00 00 FF FB 24 00 
   280)       128.5  Rx     00002902  8  00 85 00 00 00 01 23 00 
   281)       128.7  Rx     00002901  8  FC 25 00 00 FF FA 24 00 
   282)       129.4  Rx         0003  8  F9 46 00 E8 F9 46 00 E8 
   283)       129.5  Rx         0004  8  00 00 00 00 00 00 00 00 
   284)       129.7  Rx         0005  8  00 00 00 00 00 00 01 73 
   285)       129.8  Rx     00000801  8  00 00 00 7F FF 80 08 00 
   286)       130.0  Rx     00000802  8  00 00 00 7F FF 80 08 00 
   287)       130.5  Rx     00002902  8  00 85 00 00 00 02 23 00 
   288)       130.7  Rx     00002901  8  FC 25 00 00 FF F9 24 00 
   289)       132.5  Rx     00002902  8  00 85 00 00 00 00 23 00 
   290)       132.7  Rx     00002901  8  FC 25 00 00 FF FB 24 00 
   291)       133.4  Rx         0003  8  F9 46 00 E8 F9 46 00 E8 
   292)       133.6  Rx         0004  8  00 00 00 00 00 00 00 00 
   293)       133.7  Rx         0005  8  00 00 00 00 00 00 01 74 
   294)       133.9  Rx     00000801  8  00 00 00 7F FF 80 08 00 
   295)       134.0  Rx     00000802  8  00 00 00 7F FF 80 08 00 
   296)       134.5  Rx     00002902  8  00 85 00 00 00 02 23 00 
   297)       134.7  Rx     00002901  8  FC 25 00 00 FF FA 24 00 
   298)       136.5  Rx     00002902  8  00 85 00 00 00 00 23 00 
   299)       136.7  Rx     00002901  8  FC 25 00 00 FF FA 24 00 
   300)       137.4  Rx         0003  8  F9 46 00 E8 F9 46 00 E8 
   301)       137.6  Rx         0004  8  00 00 00 00 00 00 00 00 
   302)       137.7  Rx         0005  8  00 00 00 00 00 00 01 72 
   303)       137.8  Rx     00000801  8  00 00 00 7F FF 80 08 00 
   304)       138.0  Rx     00000802  8  00 00 00 7F FF 80 08 00 
   305)       138.5  Rx     00002902  8  00 85 00 00 00 03 23 00 
   306)       138.7  Rx     00002901  8  FC 25 00 00 FF F9 24 00 
   307)       140.5  Rx     00002902  8  00 85 00 00 00 00 23 00 
   308)       140.7  Rx     00002901  8  FC 25 00 00 FF F9 24 00 
   309)       141.4  Rx         0003  8  F9 46 00 E8 F9 46 00 E8 
   310)       141.6  Rx         0004  8  00 00 00 00 00 00 00 00 
   311)       141.7  Rx         0005  8  00 00 00 00 00 00 01 72 
   312)       141.8  Rx     00000801  8  00 00 00 7F FF 80 08 00 
   313)       142.0  Rx     00000802  8  00 00 00 7F FF 80 08 00 
   314)       142.5  Rx     00002902  8  00 85 00 00 00 02 23 00 
   315)       142.7  Rx     00002901  8  FC 25 00 00 FF FB 24 00 
   316)       144.5  Rx     00002902  8  00 85 00 00 00 00 23 00 
   317)       144.6  Rx     00002901  8  FC 25 00 00 FF FA 24 00 
   318)       145.5  Rx         0003  8  F9 46 00 E8 F9 46 00 E8 
   319)       145.5  Rx         0004  8  00 00 00 00 00 00 00 00 
   320)       145.7  Rx         0005  8  00 00 00 00 00 00 01 72 
   321)       145.8  Rx     00000801  8  00 00 00 7F FF 80 08 00 
   322)       146.0  Rx     00000802  8  00 00 00 7F FF 80 08 00 
   323)       146.5  Rx     00002902  8  00 85 00 00 00 02 23 00 
   324)       146.7  Rx     00002901  8  FC 25 00 00 FF FA 24 00 
   325)       148.5  Rx     00002902  8  00 85 00 00 00 00 23 00 
   326)       148.7  Rx     00002901  8  FC 25 00 00 FF F9 24 00 
   327)       149.4  Rx         0003  8  F9 46 00 E8 F9 46 00 E8 
   328)       149.6  Rx         0004  8  00 00 00 00 00 00 00 00 
   329)       149.7  Rx         0005  8  00 00 00 00 00 00 01 73 
   330)       149.9  Rx     00000801  8  00 00 00 7F FF 80 08 00 
   331)       150.0  Rx     00000802  8  00 00 00 7F FF 80 08 00 
   332)       150.6  Rx     00002902  8  00 85 00 00 00 04 23 00 
   333)       150.7  Rx     00002901  8  FC 25 00 00 FF FA 24 00 
   334)       152.6  Rx     00002902  8  00 85 00 00 FF FE 23 00 
   335)       152.7  Rx     00002901  8  FC 25 00 00 FF F9 24 00 
   336)       153.4  Rx         0003  8  F9 46 00 E8 F9 46 00 E8 
   337)       153.6  Rx         0004  8  00 00 00 00 00 00 00 00 
   338)       153.7  Rx         0005  8  00 00 00 00 00 00 01 74 
   339)       153.9  Rx     00000801  8  00 00 00 7F FF 80 08 00 
   340)       154.0  Rx     00000802  8  00 00 00 7F FF 80 08 00 
   341)       154.6  Rx     00002902  8  00 85 00 00 00 01 23 00 
   342)       154.7  Rx     00002901  8  FC 25 00 00 FF FB 24 00 
   343)       156.6  Rx     00002902  8  00 85 00 00 FF FA 23 00 
   344)       156.7  Rx     00002901  8  FC 25 00 00 FF FA 24 00 
   345)       157.4  Rx         0003  8  F9 46 00 E8 F9 46 00 E8 
   346)       157.6  Rx         0004  8  00 00 00 00 00 00 00 00 
   347)       157.7  Rx         0005  8  00 00 00 00 00 00 01 73 
   348)       157.8  Rx     00000801  8  00 00 00 7F FF 80 08 00 
   349)       158.0  Rx     00000802  8  00 00 00 7F FF 80 08 00 
   350)       158.6  Rx     00002902  8  00 85 00 00 00 00 23 00 
   351)       158.7  Rx     00002901  8  FC 25 00 00 FF FB 24 00 
   352)       160.6  Rx     00002902  8  00 85 00 00 FF F9 23 00 
   353)       160.7  Rx     00002901  8  FC 25 00 00 FF FC 24 00 
   354)       161.4  Rx         0003  8  F9 46 00 E8 F9 46 00 E8 
   355)       161.6  Rx         0004  8  00 00 00 00 00 00 00 00 
   356)       161.7  Rx         0005  8  00 00 00 00 00 00 01 74 
   357)       161.8  Rx     00000801  8  00 00 00 7F FF 80 08 00 
   358)       162.0  Rx     00000802  8  00 00 00 7F FF 80 08 00 
   359)       162.6  Rx     00002902  8  00 85 00 00 FF FF 23 00 
   360)       162.7  Rx     00002901  8  FC 25 00 00 FF FC 24 00 
   361)       164.6  Rx     00002902  8  00 85 00 00 FF FA 23 00 
   362)       164.7  Rx     00002901  8  FC 25 00 00 FF FB 24 00 
   363)       165.4  Rx         0003  8  F9 46 00 E8 F9 46 00 E8 
   364)       165.6  Rx         0004  8  00 00 00 00 00 00 00 00 
   365)       165.7  Rx         0005  8  00 00 00 00 00 00 01 73 
   366)       165.9  Rx     00000801  8  00 00 00 7F FF 80 08 00 
   367)       166.0  Rx     00000802  8  00 00 00 7F FF 80 08 00 
   368)       166.6  Rx     00002902  8  00 85 00 00 00 00 23 00 
   369)       166.7  Rx     00002901  8  FC 25 00 00 FF FD 24 00 
   370)       168.6  Rx     00002902  8  00 85 00 00 FF FA 23 00 
   371)       168.7  Rx     00002901  8  FC 25 00 00 FF FB 24 00 
